! Copyright - Freescale Semiconductor, Inc., 2005-2006.
! Rev. 0
! MMG3005NT1 S-Parameters
# Hz S  MA   R 50
! Scattering Parameters
        250000000       0.70575124         -173.8086        5.06030274          143.9079     0.00976400515         -49.72387       0.849113411          174.6467
        300000000       0.73136715         -174.9071        4.79110843          137.4018     0.00866913967         -46.56975       0.842731641          173.1573
        350000000      0.754423139         -176.2571        4.52892887          131.5143     0.00772596969         -43.79457       0.837635259          172.1297
        400000000      0.775543835         -177.6676        4.27838635          126.1158     0.00689455912         -40.58821        0.83409679          171.2744
        450000000       0.79367107         -179.0448        4.03787156          121.1801     0.00618576618         -36.62914       0.830410726          170.6306
        500000000      0.809393291          179.5802        3.82658619          116.7504     0.00565882808          -31.6344        0.83218781          170.4313
        550000000      0.823045036          178.2693        3.62049123          112.4687     0.00522872739         -26.35644       0.830824701          169.9902
        600000000      0.834303374          177.0721        3.43321499          108.5482     0.00494324915         -20.61252       0.829550157          169.8259
        650000000      0.843538385          175.9789        3.26377717          104.8244     0.00476743741         -15.16478       0.828179069          169.7669
        700000000      0.851331984          174.9905        3.10745215          101.2926     0.00468335415         -10.34393       0.825914613          169.8591
        750000000      0.856974699          174.1583        2.96330361          97.95836     0.00458042209         -5.802466       0.824884798           170.148
        800000000      0.861774621          173.3482        2.82582264          94.86025     0.00453439657         -1.510263       0.825931443          170.5744
        850000000      0.865772327          172.6037        2.70180406          92.31211     0.00452133306          3.534078       0.827849422          171.0727
        900000000      0.868183145          171.8514         2.6048016          90.11468      0.0045538005          7.996799       0.830103892          171.4993
        950000000      0.869460887          171.1459        2.53737321          88.04098      0.0047480305          12.72421        0.83194133           172.003
           1e+009      0.869751527          170.4154         2.4895775          85.86237     0.00497455801          15.24767       0.832036829          172.4485
        1.05e+009      0.868442962          169.6644        2.45828822          83.60931      0.0051755499          16.95959       0.831280609          172.9633
         1.1e+009      0.865342731           168.911        2.44440718          81.27442     0.00537109705          18.37111       0.829201349          173.4981
        1.15e+009      0.860962826          168.1426        2.44831363          78.81236     0.00562617841          19.48205       0.826786544          174.0098
         1.2e+009      0.854798497          167.2508        2.46614467          76.18623     0.00588692496          19.74414       0.823138187          174.6306
        1.25e+009      0.846806826          166.2558        2.49654846          73.39426     0.00614147234          19.43888       0.818023443          175.2879
         1.3e+009      0.837079873          165.1788        2.54334368          70.39244     0.00639175324          18.68525       0.811555079          176.0811
        1.35e+009      0.824708176          164.0007        2.60407747          67.17568     0.00664414344          17.13241       0.803939283          176.9796
         1.4e+009      0.809707757           162.756        2.68779103           63.6942     0.00686142783          15.08335       0.798133886          177.9843
        1.45e+009      0.790876188          161.4219        2.79208734          59.73237     0.00706459875          12.39975       0.791897551          178.8325
         1.5e+009      0.768474038          160.0273        2.91090344          55.24763     0.00723247598          9.019495        0.78265921          179.6774
        1.55e+009      0.741252379          158.6027        3.04952923          50.25756     0.00734932579          4.641632       0.772561124         -179.2805
         1.6e+009      0.709351514          157.3025        3.20137832          44.66973     0.00737492316        -0.8510899       0.761991892         -178.1806
        1.65e+009      0.672640248          156.2542        3.36368253          38.42491     0.00727701047         -7.607616       0.752397337         -176.9353
         1.7e+009      0.632067121          155.7343        3.53074213          31.45259     0.00701361625          -15.8369       0.744320276          -175.631
        1.75e+009      0.590598242          156.1288          3.696145          23.73053     0.00656686367         -26.02901       0.739440528         -174.3314
         1.8e+009       0.55222263          157.7555        3.84690977          15.21947     0.00591659715         -38.81121       0.737632766         -173.2424
        1.85e+009      0.539049441           175.464         3.8467459          5.981833     0.00493207872         -55.44331       0.748683393          173.6466
         1.9e+009      0.550752339         -178.7188        3.76760617         -3.564792     0.00394159501         -78.17591       0.762386417          172.1361
        1.95e+009       0.58343738         -174.0775         3.6138157         -13.30752     0.00324888994         -110.2461       0.776584468          170.1283
           2e+009      0.630381414          -171.292        3.40565774         -22.98055     0.00324535717         -147.3926       0.788937592          167.7201
        2.05e+009        0.6827819         -170.3199        3.15295702         -32.28077     0.00388198631         -177.7091       0.797955826          164.9581
         2.1e+009      0.733277991         -170.7823        2.87844046         -41.06973     0.00480826063          161.3742       0.804224594          162.0314
        2.15e+009      0.778769618         -172.1397        2.60212287         -49.24137     0.00575958245          146.5222       0.806238903          159.0419
         2.2e+009      0.816684663         -174.0547        2.33493046         -56.77723     0.00658131231          135.4889       0.806056622          156.0169
        2.25e+009       0.84812087         -176.2488         2.0859666         -63.68793     0.00728131802          126.9127       0.803022659          153.0775
         2.3e+009       0.87279902         -178.5456         1.8592387          -70.0082     0.00782863419          120.2179       0.798670696          150.2035
        2.35e+009      0.892645932          179.0722        1.65719552         -75.82124     0.00823826011          114.8555       0.793442574          147.4463
         2.4e+009      0.907571428          176.7037        1.47815916         -81.18845     0.00851149797          110.6575       0.787161238          144.7954
        2.45e+009      0.919873674          174.3094        1.32099827         -86.21703     0.00867915611          107.6521       0.780671365          142.2479
         2.5e+009      0.929207283          171.9872        1.18245821         -90.93039     0.00875181241          105.8201       0.772981322          139.7656
        2.55e+009      0.936097122          169.6564        1.06139548         -95.40916     0.00877710917          105.1781       0.765256628          137.4168
         2.6e+009      0.942537276          167.3851        0.95481009         -99.69202     0.00879245188          105.7394        0.75558704          135.1575
        2.65e+009      0.946617404          165.1678         0.8611718         -103.8317     0.00881077275          107.6581       0.745728258          132.9496
         2.7e+009      0.950037449          162.9976       0.778732679         -107.8858     0.00893919683          111.2378       0.733885404          130.8654
        2.75e+009      0.952450491          160.8566       0.705801537         -111.9052     0.00932048475          116.1766       0.720343016          128.8191
         2.8e+009        0.9541646          158.7028       0.640729913         -115.9577      0.0100560633           122.006       0.704070665           126.971
        2.85e+009      0.955349752          156.6686       0.582335277         -120.0798      0.0114181041          127.9706       0.684023622          125.2217
         2.9e+009       0.95571439          154.6383       0.528928173         -124.3977      0.0135796163          132.3144       0.659918799          123.7716
        2.95e+009      0.955662644          152.6849       0.479105879         -128.9092      0.0166171102           134.315       0.630170473          122.7659
           3e+009      0.954895364          150.8608       0.431464183         -133.6456       0.020606916          133.6987       0.596048364          122.5139
