! Filename: 35BFG310WXR.s2p
! Title: BFG310WXR,RN20042071,Lot:TT3082,B:X1104,Sl.:3
! Bias: VCE=2.999V; IC=4.999mA;
! Company: NXP Semiconductors NL
! User: Q&R DSC-N
! Measure time: 29 Mar 2004 / 13:22:06
#  MHz  S  MA  R 50
! Freq       S11             S21             S12             S22    :
   40  0.83652 -3.952 11.64367 176.28 0.004112 87.840  0.99147 -2.083
   50  0.83578 -4.988 11.61505 175.49 0.005145 86.889  0.99127 -2.613
  100  0.83099 -9.991 11.53907 171.63 0.010201 83.868  0.98667 -5.360
  200  0.81311 -19.79 11.29030 163.68 0.019846 78.340  0.96840 -10.61
  300  0.78591 -29.26 10.93604 156.05 0.028894 73.079  0.94040 -15.51
  400  0.75217 -38.30 10.48012 148.90 0.037098 68.295  0.90548 -19.99
  500  0.71463 -46.96  9.97421 142.26 0.044319 64.049  0.86706 -24.04
  600  0.67540 -55.13  9.46490 136.07 0.050528 60.303  0.82671 -27.66
  700  0.63760 -62.93  8.94329 130.43 0.055960 57.022  0.78706 -30.80
  800  0.60123 -70.20  8.42502 125.29 0.060693 54.235  0.74951 -33.60
  900  0.56634 -77.19  7.94232 120.54 0.064693 51.858  0.71386 -36.09
 1000  0.53444 -83.92  7.50172 116.15 0.068339 49.784  0.68164 -38.22
 1100  0.50727 -90.37  7.07911 112.12 0.071590 48.006  0.65086 -40.16
 1200  0.48187 -96.55  6.69035 108.38 0.074442 46.507  0.62292 -42.03
 1300  0.45869 -102.5  6.33599 104.81 0.077087 45.249  0.59862 -43.75
 1400  0.43988 -108.4  6.01163 101.57 0.079513 44.228  0.57673 -45.23
 1500  0.42448 -114.0  5.70781 98.474 0.081610 43.388  0.55610 -46.64
 1600  0.41074 -119.5  5.44564 95.544 0.083747 42.515  0.53766 -48.10
 1700  0.39920 -124.9  5.18821 92.829 0.085776 41.966  0.52223 -49.48
 1800  0.39129 -129.9  4.95118 90.085 0.087561 41.422  0.50775 -50.67
 1900  0.38435 -134.7  4.75529 87.628 0.089431 40.908  0.49429 -51.90
 2000  0.37978 -139.5  4.54952 85.220 0.091327 40.650  0.48259 -53.27
 2100  0.37686 -143.9  4.37150 82.839 0.093057 40.325  0.47286 -54.48
 2200  0.37564 -148.1  4.20953 80.708 0.094884 40.072  0.46394 -55.63
 2300  0.37550 -151.9  4.04764 78.512 0.096627 39.965  0.45484 -56.85
 2400  0.37553 -155.6  3.91116 76.371 0.098180 39.729  0.44757 -58.19
 2500  0.37738 -159.2  3.77454 74.483  0.10013 39.618  0.44144 -59.40
 2600  0.37883 -162.4  3.64590 72.329  0.10168 39.611  0.43556 -60.57
 2700  0.38105 -165.3  3.54181 70.368  0.10326 39.384  0.43001 -61.92
 2800  0.38328 -168.2  3.43112 68.657  0.10530 39.269  0.42617 -63.21
 2900  0.38496 -171.1  3.31930 66.763  0.10695 39.271  0.42371 -64.53
 3000  0.38782 -173.4  3.23498 64.918  0.10877 39.110  0.42000 -65.78