! Filename:       BFR540J.S2P                                Version:   3.0
! NXP part #: BFR540                                     Date: Feb 1992
! Bias condition: Vce=8V, Ic=30mA
!
#  MHz  S  MA  R  50
! Freq       S11            S21            S12            S22     !GUM [dB]
   40    .651  -37.6  42.346  149.2    .013   73.6    .810  -24.8 !    39.6
  100    .480  -77.0  28.902  124.7    .026   64.7    .567  -43.8 !    32.0
  200    .357 -113.0  17.237  107.5    .040   64.9    .365  -54.0 !    25.9
  300    .321 -132.5  12.068   99.3    .053   67.3    .280  -57.4 !    22.5
  400    .307 -145.0   9.257   94.0    .067   68.6    .235  -59.4 !    20.0
  500    .298 -153.3   7.499   90.0    .080   70.1    .212  -60.5 !    18.1
  600    .293 -159.5   6.324   86.8    .094   70.4    .198  -61.3 !    16.6
  700    .287 -164.9   5.471   83.8    .108   70.8    .189  -61.5 !    15.3
  800    .283 -170.0   4.842   81.1    .121   70.7    .183  -61.5 !    14.2
  900    .281 -175.4   4.330   78.5    .135   70.6    .177  -61.7 !    13.2
 1000    .281  179.9   3.915   76.2    .148   70.2    .170  -62.1 !    12.3
 1200    .287  171.5   3.312   71.8    .174   69.1    .159  -65.2 !    10.9
 1400    .295  166.3   2.893   67.7    .200   68.0    .154  -69.0 !     9.7
 1600    .285  161.8   2.572   63.7    .226   66.8    .156  -69.5 !     8.7
 1800    .285  155.7   2.328   60.2    .251   65.4    .153  -71.2 !     7.8
 2000    .294  147.7   2.140   56.7    .276   63.9    .138  -72.3 !     7.1
 2200    .320  141.8   1.986   53.7    .300   62.4    .119  -77.9 !     6.5
 2400    .338  139.4   1.859   50.3    .325   60.6    .111  -89.9 !     6.0
 2600    .340  138.2   1.740   47.1    .345   59.0    .116  -99.7 !     5.4
 2800    .339  134.2   1.668   44.3    .368   57.4    .120 -102.8 !     5.0
 3000    .351  126.9   1.597   41.3    .390   55.7    .107 -105.5 !     4.7
! Noise data:
! Freq.     Fmin        Gamma-opt         rn
  900       1.70     .221    139.0       .14
 2000       2.40     .420   -153.0       .13