! Filename: 315BFG325WXR.s2p
! Title: BFG325WXR,RN20042071,Lot:TT3899C,B:Y13641,Sl.:1
! Bias: VCE=2.999V; IC=14.88mA;
! Company: NXP Semiconductors NL
! User: Q&R DSC-N
! Measure time: 29 Mar 2004 / 13:40:46
#  MHz  S  MA  R 50
! Freq       S11             S21             S12             S22    :
   40  0.68558 -14.02 31.51209 171.11 0.006476 83.417  0.96989 -7.765
   50  0.68383 -17.49 31.28292 169.01 0.008008 81.697  0.96497 -9.734
  100  0.66752 -34.25 29.89428 159.10 0.015286 74.383  0.92442 -19.18
  200  0.62188 -63.47 25.86980 142.18 0.026719 62.842  0.80249 -34.81
  300  0.58074 -86.49 21.78936 129.56 0.034410 55.305  0.67595 -46.12
  400  0.55100 -104.2 18.35991 120.25 0.039631 50.919  0.57063 -54.31
  500  0.53160 -118.1 15.67765 113.19 0.043629 48.584  0.48886 -60.40
  600  0.51897 -129.1 13.61289 107.58 0.046789 47.369  0.42583 -65.15
  700  0.51159 -138.1 11.97435 102.99 0.049665 46.911  0.37579 -68.97
  800  0.50761 -145.5 10.66271 99.172 0.052504 46.914  0.33615 -72.29
  900  0.50483 -151.8  9.60257 95.840 0.055149 47.220  0.30464 -75.31
 1000  0.50520 -157.2  8.72167 92.843 0.057818 47.631  0.27880 -77.97
 1100  0.50688 -161.8  7.98391 90.133 0.060660 48.074  0.25639 -80.62
 1200  0.50800 -166.0  7.35390 87.732 0.063358 48.608  0.23898 -83.42
 1300  0.50992 -169.8  6.81781 85.354 0.066198 49.056  0.22534 -86.11
 1400  0.51367 -173.2  6.36184 83.185 0.069185 49.495  0.21367 -88.44
 1500  0.51719 -176.2  5.94811 81.205 0.071971 50.072  0.20328 -91.06
 1600  0.52093 -179.0  5.59164 79.138 0.074772 50.309  0.19518 -93.87
 1700  0.52525 178.33  5.27470 77.305 0.077915 50.670  0.18984 -96.33
 1800  0.53012 176.07  4.97975 75.462 0.080770 51.014  0.18404 -98.73
 1900  0.53412 173.93  4.73406 73.655 0.083641 51.143  0.17955 -101.3
 2000  0.53882 171.88  4.49994 71.953 0.086846 51.346  0.17746 -104.0
 2100  0.54317 170.03  4.28625 70.214 0.089800 51.426  0.17612 -106.2
 2200  0.54774 168.25  4.10560 68.571 0.092992 51.425  0.17456 -108.2
 2300  0.55199 166.66  3.92639 67.000 0.096173 51.623  0.17327 -110.7
 2400  0.55540 165.05  3.76851 65.313 0.099027 51.585  0.17432 -113.0
 2500  0.55995 163.57  3.62135 63.817  0.10242 51.408  0.17511 -114.9
 2600  0.56325 162.19  3.48366 62.181  0.10546 51.577  0.17587 -116.8
 2700  0.56642 160.85  3.36224 60.531  0.10819 51.344  0.17785 -118.9
 2800  0.56880 159.54  3.24939 59.004  0.11159 51.036  0.18035 -120.6
 2900  0.57255 158.16  3.13711 57.606  0.11475 50.953  0.18403 -122.1
 3000  0.57382 157.03  3.03858 55.965  0.11780 50.653  0.18623 -123.8