<Qucs Dataset 0.0.18>
<indep acfrequency 10>
  +1.00000000000e+01
  +4.64158883361e+01
  +2.15443469003e+02
  +1.00000000000e+03
  +4.64158883361e+03
  +2.15443469003e+04
  +1.00000000000e+05
  +4.64158883361e+05
  +2.15443469003e+06
  +1.00000000000e+07
</indep>
<indep Cctr 3>
  +0.00000000000e+00
  +5.00000000000e-08
  +1.00000000000e-07
</indep>
<indep A1 2>
  +1.00000000000e+00
  +2.00000000000e+00
</indep>
<dep Pr1.v acfrequency Cctr A1>
  +1.00000000000e+00
  +1.00000000000e+00
  +1.00000000000e+00
  +1.00000000000e+00
  +1.00000000000e+00
  +1.00000000000e+00
  +1.00000000000e+00
  +1.00000000000e+00
  +1.00000000000e+00
  +1.00000000000e+00
  +9.99999975326e-01-j1.57079628804e-04
  +9.99999468415e-01-j7.29098681455e-04
  +9.99988547470e-01-j3.38413934002e-03
  +9.99753320756e-01-j1.57040884394e-02
  +9.94712254362e-01-j7.25243778611e-02
  +8.97241920904e-01-j3.03642645681e-01
  +2.88400439142e-01-j4.53018350450e-01
  +1.84643068873e-02-j1.34623089619e-01
  +8.72397749122e-04-j2.95234935482e-02
  +4.05268309663e-05-j6.36593972186e-03
  +9.99999901304e-01-j3.14159234353e-04
  +9.99997873663e-01-j1.45819503745e-03
  +9.99954191453e-01-j6.76804614628e-03
  +9.99014012690e-01-j3.13849508310e-02
  +9.79179301127e-01-j1.42783743374e-01
  +6.85820981054e-01-j4.64188068567e-01
  +9.19996683504e-02-j2.89025482222e-01
  +4.68089888699e-03-j6.82567804148e-02
  +2.18242232805e-04-j1.47714116838e-02
  +1.01320157055e-05-j3.18306661063e-03
  +2.00000000000e+00
  +2.00000000000e+00
  +2.00000000000e+00
  +2.00000000000e+00
  +2.00000000000e+00
  +2.00000000000e+00
  +2.00000000000e+00
  +2.00000000000e+00
  +2.00000000000e+00
  +2.00000000000e+00
  +1.99999995065e+00-j3.14159257607e-04
  +1.99999893683e+00-j1.45819736291e-03
  +1.99997709494e+00-j6.76827868004e-03
  +1.99950664151e+00-j3.14081768789e-02
  +1.98942450872e+00-j1.45048755722e-01
  +1.79448384181e+00-j6.07285291363e-01
  +5.76800878284e-01-j9.06036700901e-01
  +3.69286137746e-02-j2.69246179237e-01
  +1.74479549824e-03-j5.90469870963e-02
  +8.10536619327e-05-j1.27318794437e-02
  +1.99999980261e+00-j6.28318468705e-04
  +1.99999574733e+00-j2.91639007489e-03
  +1.99990838291e+00-j1.35360922926e-02
  +1.99802802538e+00-j6.27699016620e-02
  +1.95835860225e+00-j2.85567486747e-01
  +1.37164196211e+00-j9.28376137134e-01
  +1.83999336701e-01-j5.78050964444e-01
  +9.36179777398e-03-j1.36513560830e-01
  +4.36484465610e-04-j2.95428233676e-02
  +2.02640314109e-05-j6.36613322126e-03
</dep>
<dep V1.i acfrequency Cctr A1>
  +0.00000000000e+00
  +0.00000000000e+00
  +0.00000000000e+00
  +0.00000000000e+00
  +0.00000000000e+00
  +0.00000000000e+00
  +0.00000000000e+00
  +0.00000000000e+00
  +0.00000000000e+00
  +0.00000000000e+00
  -4.93480204616e-10-j3.14159257607e-06
  -1.06317033961e-08-j1.45819736291e-05
  -2.29050604664e-07-j6.76827868004e-05
  -4.93358488727e-06-j3.14081768789e-04
  -1.05754912761e-04-j1.45048755722e-03
  -2.05516158192e-03-j6.07285291363e-03
  -1.42319912172e-02-j9.06036700901e-03
  -1.96307138623e-02-j2.69246179237e-03
  -1.99825520450e-02-j5.90469870963e-04
  -1.99991894634e-02-j1.27318794437e-04
  -1.97392068316e-09-j6.28318468705e-06
  -4.25267457707e-08-j2.91639007489e-05
  -9.16170941223e-07-j1.35360922926e-04
  -1.97197461928e-05-j6.27699016620e-04
  -4.16413977467e-04-j2.85567486747e-03
  -6.28358037892e-03-j9.28376137134e-03
  -1.81600066330e-02-j5.78050964444e-03
  -1.99063820223e-02-j1.36513560830e-03
  -1.99956351553e-02-j2.95428233676e-04
  -1.99997973597e-02-j6.36613322126e-05
  +0.00000000000e+00
  +0.00000000000e+00
  +0.00000000000e+00
  +0.00000000000e+00
  +0.00000000000e+00
  +0.00000000000e+00
  +0.00000000000e+00
  +0.00000000000e+00
  +0.00000000000e+00
  +0.00000000000e+00
  -9.86960409233e-10-j6.28318515215e-06
  -2.12634067923e-08-j2.91639472582e-05
  -4.58101209327e-07-j1.35365573601e-04
  -9.86716977454e-06-j6.28163537578e-04
  -2.11509825523e-04-j2.90097511444e-03
  -4.11032316383e-03-j1.21457058273e-02
  -2.84639824343e-02-j1.81207340180e-02
  -3.92614277245e-02-j5.38492358474e-03
  -3.99651040900e-02-j1.18093974193e-03
  -3.99983789268e-02-j2.54637588874e-04
  -3.94784136631e-09-j1.25663693741e-05
  -8.50534915414e-08-j5.83278014978e-05
  -1.83234188245e-06-j2.70721845851e-04
  -3.94394923856e-05-j1.25539803324e-03
  -8.32827954934e-04-j5.71134973494e-03
  -1.25671607578e-02-j1.85675227427e-02
  -3.63200132660e-02-j1.15610192889e-02
  -3.98127640445e-02-j2.73027121659e-03
  -3.99912703107e-02-j5.90856467353e-04
  -3.99995947194e-02-j1.27322664425e-04
</dep>
<dep _net1.v acfrequency Cctr A1>
  +1.00000000000e+00
  +1.00000000000e+00
  +1.00000000000e+00
  +1.00000000000e+00
  +1.00000000000e+00
  +1.00000000000e+00
  +1.00000000000e+00
  +1.00000000000e+00
  +1.00000000000e+00
  +1.00000000000e+00
  +9.99999975326e-01-j1.57079628804e-04
  +9.99999468415e-01-j7.29098681455e-04
  +9.99988547470e-01-j3.38413934002e-03
  +9.99753320756e-01-j1.57040884394e-02
  +9.94712254362e-01-j7.25243778611e-02
  +8.97241920904e-01-j3.03642645681e-01
  +2.88400439142e-01-j4.53018350450e-01
  +1.84643068873e-02-j1.34623089619e-01
  +8.72397749122e-04-j2.95234935482e-02
  +4.05268309663e-05-j6.36593972186e-03
  +9.99999901304e-01-j3.14159234353e-04
  +9.99997873663e-01-j1.45819503745e-03
  +9.99954191453e-01-j6.76804614628e-03
  +9.99014012690e-01-j3.13849508310e-02
  +9.79179301127e-01-j1.42783743374e-01
  +6.85820981054e-01-j4.64188068567e-01
  +9.19996683504e-02-j2.89025482222e-01
  +4.68089888699e-03-j6.82567804148e-02
  +2.18242232805e-04-j1.47714116838e-02
  +1.01320157055e-05-j3.18306661063e-03
  +2.00000000000e+00
  +2.00000000000e+00
  +2.00000000000e+00
  +2.00000000000e+00
  +2.00000000000e+00
  +2.00000000000e+00
  +2.00000000000e+00
  +2.00000000000e+00
  +2.00000000000e+00
  +2.00000000000e+00
  +1.99999995065e+00-j3.14159257607e-04
  +1.99999893683e+00-j1.45819736291e-03
  +1.99997709494e+00-j6.76827868004e-03
  +1.99950664151e+00-j3.14081768789e-02
  +1.98942450872e+00-j1.45048755722e-01
  +1.79448384181e+00-j6.07285291363e-01
  +5.76800878284e-01-j9.06036700901e-01
  +3.69286137746e-02-j2.69246179237e-01
  +1.74479549824e-03-j5.90469870963e-02
  +8.10536619327e-05-j1.27318794437e-02
  +1.99999980261e+00-j6.28318468705e-04
  +1.99999574733e+00-j2.91639007489e-03
  +1.99990838291e+00-j1.35360922926e-02
  +1.99802802538e+00-j6.27699016620e-02
  +1.95835860225e+00-j2.85567486747e-01
  +1.37164196211e+00-j9.28376137134e-01
  +1.83999336701e-01-j5.78050964444e-01
  +9.36179777398e-03-j1.36513560830e-01
  +4.36484465610e-04-j2.95428233676e-02
  +2.02640314109e-05-j6.36613322126e-03
</dep>
<dep _net0.v acfrequency Cctr A1>
  +1.00000000000e+00
  +1.00000000000e+00
  +1.00000000000e+00
  +1.00000000000e+00
  +1.00000000000e+00
  +1.00000000000e+00
  +1.00000000000e+00
  +1.00000000000e+00
  +1.00000000000e+00
  +1.00000000000e+00
  +1.00000000000e+00
  +1.00000000000e+00
  +1.00000000000e+00
  +1.00000000000e+00
  +1.00000000000e+00
  +1.00000000000e+00
  +1.00000000000e+00
  +1.00000000000e+00
  +1.00000000000e+00
  +1.00000000000e+00
  +1.00000000000e+00
  +1.00000000000e+00
  +1.00000000000e+00
  +1.00000000000e+00
  +1.00000000000e+00
  +1.00000000000e+00
  +1.00000000000e+00
  +1.00000000000e+00
  +1.00000000000e+00
  +1.00000000000e+00
  +2.00000000000e+00
  +2.00000000000e+00
  +2.00000000000e+00
  +2.00000000000e+00
  +2.00000000000e+00
  +2.00000000000e+00
  +2.00000000000e+00
  +2.00000000000e+00
  +2.00000000000e+00
  +2.00000000000e+00
  +2.00000000000e+00
  +2.00000000000e+00
  +2.00000000000e+00
  +2.00000000000e+00
  +2.00000000000e+00
  +2.00000000000e+00
  +2.00000000000e+00
  +2.00000000000e+00
  +2.00000000000e+00
  +2.00000000000e+00
  +2.00000000000e+00
  +2.00000000000e+00
  +2.00000000000e+00
  +2.00000000000e+00
  +2.00000000000e+00
  +2.00000000000e+00
  +2.00000000000e+00
  +2.00000000000e+00
  +2.00000000000e+00
  +2.00000000000e+00
</dep>
