#Hz S ri R 50
2e+08 0.341041 -0.523127
2.06533e+08 0.326448 -0.52585
2.13065e+08 0.311821 -0.52861
2.19598e+08 0.29716 -0.531406
2.26131e+08 0.282465 -0.53424
2.32663e+08 0.267736 -0.53711
2.39196e+08 0.252973 -0.540018
2.45729e+08 0.238175 -0.542963
2.52261e+08 0.223343 -0.545946
2.58794e+08 0.208477 -0.548967
2.65327e+08 0.193576 -0.552026
2.71859e+08 0.17864 -0.555123
2.78392e+08 0.163669 -0.558258
2.84925e+08 0.148664 -0.561432
2.91457e+08 0.133623 -0.564644
2.9799e+08 0.118548 -0.567895
3.04523e+08 0.106265 -0.567653
3.11055e+08 0.0952127 -0.565854
3.17588e+08 0.0841364 -0.564064
3.24121e+08 0.0730355 -0.562284
3.30653e+08 0.0619101 -0.560513
3.37186e+08 0.0507602 -0.558751
3.43719e+08 0.0395855 -0.556998
3.50251e+08 0.028386 -0.555255
3.56784e+08 0.0171617 -0.553521
3.63317e+08 0.00591255 -0.551797
3.69849e+08 -0.00536162 -0.550081
3.76382e+08 -0.0166609 -0.548376
3.82915e+08 -0.0279852 -0.546679
3.89447e+08 -0.0393348 -0.544993
3.9598e+08 -0.0507097 -0.543315
4.02513e+08 -0.0607326 -0.540939
4.09045e+08 -0.0685695 -0.537433
4.15578e+08 -0.0764206 -0.533929
4.22111e+08 -0.084286 -0.530427
4.28643e+08 -0.0921657 -0.526927
4.35176e+08 -0.10006 -0.523428
4.41709e+08 -0.107968 -0.519932
4.48241e+08 -0.115891 -0.516437
4.54774e+08 -0.123828 -0.512944
4.61307e+08 -0.13178 -0.509453
4.67839e+08 -0.139746 -0.505964
4.74372e+08 -0.147726 -0.502477
4.80905e+08 -0.155721 -0.498991
4.87437e+08 -0.163731 -0.495507
4.9397e+08 -0.171755 -0.492025
5.00503e+08 -0.179593 -0.488514
5.07035e+08 -0.185031 -0.484635
5.13568e+08 -0.190477 -0.480756
5.20101e+08 -0.195931 -0.476876
5.26633e+08 -0.201394 -0.472997
5.33166e+08 -0.206865 -0.469118
5.39698e+08 -0.212344 -0.465239
5.46231e+08 -0.217831 -0.46136
5.52764e+08 -0.223327 -0.457481
5.59296e+08 -0.228831 -0.453602
5.65829e+08 -0.234344 -0.449723
5.72362e+08 -0.239865 -0.445844
5.78894e+08 -0.245394 -0.441965
5.85427e+08 -0.250932 -0.438086
5.9196e+08 -0.256478 -0.434207
5.98492e+08 -0.262032 -0.430328
6.05025e+08 -0.266298 -0.426552
6.11558e+08 -0.27018 -0.422808
6.1809e+08 -0.274067 -0.419063
6.24623e+08 -0.277961 -0.415318
6.31156e+08 -0.28186 -0.411573
6.37688e+08 -0.285764 -0.407828
6.44221e+08 -0.289674 -0.404082
6.50754e+08 -0.29359 -0.400337
6.57286e+08 -0.297511 -0.396591
6.63819e+08 -0.301438 -0.392846
6.70352e+08 -0.305371 -0.3891
6.76884e+08 -0.309309 -0.385354
6.83417e+08 -0.313252 -0.381608
6.8995e+08 -0.317202 -0.377861
6.96482e+08 -0.321157 -0.374115
7.03015e+08 -0.324567 -0.370527
7.09548e+08 -0.327338 -0.367124
7.1608e+08 -0.330114 -0.36372
7.22613e+08 -0.332894 -0.360317
7.29146e+08 -0.335679 -0.356914
7.35678e+08 -0.338467 -0.35351
7.42211e+08 -0.34126 -0.350106
7.48744e+08 -0.344057 -0.346703
7.55276e+08 -0.346858 -0.343299
7.61809e+08 -0.349664 -0.339895
7.68342e+08 -0.352474 -0.336491
7.74874e+08 -0.355288 -0.333087
7.81407e+08 -0.358106 -0.329683
7.8794e+08 -0.360928 -0.326279
7.94472e+08 -0.363755 -0.322875
8.01005e+08 -0.366459 -0.319513
8.07538e+08 -0.368464 -0.316382
8.1407e+08 -0.370473 -0.313251
8.20603e+08 -0.372485 -0.31012
8.27136e+08 -0.3745 -0.306989
8.33668e+08 -0.376519 -0.303859
8.40201e+08 -0.37854 -0.300728
8.46734e+08 -0.380565 -0.297597
8.53266e+08 -0.382592 -0.294466
8.59799e+08 -0.384623 -0.291336
8.66332e+08 -0.386657 -0.288205
8.72864e+08 -0.388695 -0.285074
8.79397e+08 -0.390735 -0.281944
8.8593e+08 -0.392779 -0.278813
8.92462e+08 -0.394825 -0.275682
8.98995e+08 -0.396875 -0.272552
9.05528e+08 -0.398533 -0.269738
9.1206e+08 -0.400121 -0.266982
9.18593e+08 -0.401712 -0.264226
9.25126e+08 -0.403306 -0.26147
9.31658e+08 -0.404902 -0.258714
9.38191e+08 -0.406501 -0.255958
9.44724e+08 -0.408102 -0.253202
9.51256e+08 -0.409706 -0.250446
9.57789e+08 -0.411313 -0.24769
9.64322e+08 -0.412922 -0.244933
9.70854e+08 -0.414534 -0.242177
9.77387e+08 -0.416149 -0.239421
9.8392e+08 -0.417766 -0.236665
9.90452e+08 -0.419386 -0.233908
9.96985e+08 -0.421008 -0.231152
1.00352e+09 -0.422412 -0.228578
1.01005e+09 -0.423629 -0.226161
1.01658e+09 -0.424848 -0.223744
1.02312e+09 -0.42607 -0.221327
1.02965e+09 -0.427294 -0.218909
1.03618e+09 -0.42852 -0.216492
1.04271e+09 -0.429748 -0.214074
1.04925e+09 -0.430979 -0.211656
1.05578e+09 -0.432212 -0.209239
1.06231e+09 -0.433448 -0.206821
1.06884e+09 -0.434686 -0.204403
1.07538e+09 -0.435926 -0.201984
1.08191e+09 -0.437168 -0.199566
1.08844e+09 -0.438413 -0.197148
1.09497e+09 -0.43966 -0.194729
1.10151e+09 -0.440829 -0.192336
1.10804e+09 -0.441734 -0.190028
1.11457e+09 -0.44264 -0.187719
1.12111e+09 -0.443547 -0.185411
1.12764e+09 -0.444457 -0.183102
1.13417e+09 -0.445369 -0.180793
1.1407e+09 -0.446282 -0.178484
1.14724e+09 -0.447198 -0.176176
1.15377e+09 -0.448115 -0.173867
1.1603e+09 -0.449034 -0.171557
1.16683e+09 -0.449955 -0.169248
1.17337e+09 -0.450878 -0.166939
1.1799e+09 -0.451803 -0.164629
1.18643e+09 -0.45273 -0.16232
1.19296e+09 -0.453658 -0.16001
1.1995e+09 -0.454589 -0.1577
1.20603e+09 -0.45533 -0.155573
1.21256e+09 -0.456058 -0.15346
1.2191e+09 -0.456787 -0.151347
1.22563e+09 -0.457518 -0.149234
1.23216e+09 -0.458251 -0.14712
1.23869e+09 -0.458985 -0.145007
1.24523e+09 -0.459721 -0.142893
1.25176e+09 -0.460459 -0.140779
1.25829e+09 -0.461198 -0.138666
1.26482e+09 -0.461939 -0.136552
1.27136e+09 -0.462682 -0.134437
1.27789e+09 -0.463426 -0.132323
1.28442e+09 -0.464172 -0.130209
1.29095e+09 -0.46492 -0.128094
1.29749e+09 -0.46567 -0.125979
1.30402e+09 -0.466359 -0.123992
1.31055e+09 -0.467011 -0.122084
1.31709e+09 -0.467665 -0.120176
1.32362e+09 -0.46832 -0.118268
1.33015e+09 -0.468977 -0.11636
1.33668e+09 -0.469635 -0.114451
1.34322e+09 -0.470295 -0.112543
1.34975e+09 -0.470956 -0.110634
1.35628e+09 -0.471619 -0.108725
1.36281e+09 -0.472283 -0.106816
1.36935e+09 -0.472948 -0.104906
1.37588e+09 -0.473616 -0.102997
1.38241e+09 -0.474284 -0.101087
1.38894e+09 -0.474955 -0.099177
1.39548e+09 -0.475626 -0.0972668
1.40201e+09 -0.476246 -0.0954093
1.40854e+09 -0.476745 -0.0936703
1.41508e+09 -0.477245 -0.0919312
1.42161e+09 -0.477747 -0.090192
1.42814e+09 -0.47825 -0.0884526
1.43467e+09 -0.478755 -0.0867132
1.44121e+09 -0.479261 -0.0849735
1.44774e+09 -0.479767 -0.0832338
1.45427e+09 -0.480276 -0.0814939
1.4608e+09 -0.480785 -0.0797539
1.46734e+09 -0.481296 -0.0780138
1.47387e+09 -0.481808 -0.0762735
1.4804e+09 -0.482321 -0.0745331
1.48693e+09 -0.482836 -0.0727925
1.49347e+09 -0.483352 -0.0710519
1.5e+09 -0.483869 -0.0693111
