#Hz S ri R 50
1e+08 0.818388 -0.144171
1.29293e+08 0.802775 -0.182582
1.58586e+08 0.787162 -0.220993
1.87879e+08 0.771548 -0.259404
2.17172e+08 0.751444 -0.293986
2.46465e+08 0.728171 -0.325867
2.75758e+08 0.704897 -0.357748
3.05051e+08 0.680821 -0.388276
3.34343e+08 0.652889 -0.41231
3.63636e+08 0.624958 -0.436344
3.92929e+08 0.597027 -0.460378
4.22222e+08 0.567498 -0.478652
4.51515e+08 0.53746 -0.495093
4.80808e+08 0.507421 -0.511535
5.10101e+08 0.477478 -0.525522
5.39394e+08 0.447715 -0.534844
5.68687e+08 0.417953 -0.544167
5.9798e+08 0.38819 -0.55349
6.27273e+08 0.359961 -0.557847
6.56566e+08 0.331846 -0.561836
6.85859e+08 0.303731 -0.565826
7.15152e+08 0.277052 -0.567439
7.44444e+08 0.251714 -0.566833
7.73737e+08 0.226376 -0.566228
8.0303e+08 0.201293 -0.565278
8.32323e+08 0.178418 -0.561341
8.61616e+08 0.155543 -0.557404
8.90909e+08 0.132667 -0.553466
9.20202e+08 0.111636 -0.54804
9.49495e+08 0.0914355 -0.541944
9.78788e+08 0.0712345 -0.535848
1.00808e+09 0.0517673 -0.52948
1.03737e+09 0.0342261 -0.522399
1.06667e+09 0.0166849 -0.515318
1.09596e+09 -0.000856307 -0.508236
1.12525e+09 -0.0163291 -0.500054
1.15455e+09 -0.031471 -0.491695
1.18384e+09 -0.0466129 -0.483336
1.21313e+09 -0.0607857 -0.474666
1.24242e+09 -0.0737659 -0.465612
1.27172e+09 -0.0867461 -0.456559
1.30101e+09 -0.0996784 -0.44751
1.3303e+09 -0.111269 -0.438597
1.3596e+09 -0.12286 -0.429685
1.38889e+09 -0.134451 -0.420772
1.41818e+09 -0.144994 -0.412008
1.44747e+09 -0.154896 -0.403334
1.47677e+09 -0.164798 -0.394661
1.50606e+09 -0.174446 -0.385946
1.53535e+09 -0.183119 -0.377073
1.56465e+09 -0.191791 -0.368199
1.59394e+09 -0.200464 -0.359326
1.62323e+09 -0.208332 -0.3505
1.65253e+09 -0.21599 -0.341688
1.68182e+09 -0.223647 -0.332875
1.71111e+09 -0.230911 -0.32438
1.7404e+09 -0.237529 -0.316406
1.7697e+09 -0.244147 -0.308433
1.79899e+09 -0.250765 -0.300459
1.82828e+09 -0.256468 -0.292551
1.85758e+09 -0.262138 -0.284645
1.88687e+09 -0.267808 -0.27674
1.91616e+09 -0.27333 -0.268905
1.94545e+09 -0.27873 -0.261128
1.97475e+09 -0.284131 -0.253352
2.00404e+09 -0.289422 -0.245653
2.03333e+09 -0.294024 -0.238446
2.06263e+09 -0.298627 -0.23124
2.09192e+09 -0.303229 -0.224033
2.12121e+09 -0.307555 -0.217051
2.15051e+09 -0.311776 -0.210155
2.1798e+09 -0.315997 -0.203259
2.20909e+09 -0.320029 -0.196536
2.23838e+09 -0.323641 -0.190197
2.26768e+09 -0.327253 -0.183859
2.29697e+09 -0.330865 -0.177521
2.32626e+09 -0.334062 -0.171158
2.35556e+09 -0.337211 -0.164792
2.38485e+09 -0.34036 -0.158426
2.41414e+09 -0.343516 -0.152146
2.44343e+09 -0.346678 -0.145959
2.47273e+09 -0.34984 -0.139771
2.50202e+09 -0.352952 -0.133617
2.53131e+09 -0.355387 -0.127916
2.56061e+09 -0.357823 -0.122214
2.5899e+09 -0.360258 -0.116513
2.61919e+09 -0.362533 -0.111121
2.64848e+09 -0.364724 -0.105891
2.67778e+09 -0.366915 -0.100662
2.70707e+09 -0.369044 -0.0953994
2.73636e+09 -0.370978 -0.0900344
2.76566e+09 -0.372913 -0.0846693
2.79495e+09 -0.374847 -0.0793043
2.82424e+09 -0.376428 -0.0738164
2.85354e+09 -0.377935 -0.0683029
2.88283e+09 -0.379442 -0.0627894
2.91212e+09 -0.380922 -0.0577413
2.94141e+09 -0.382365 -0.0533525
2.97071e+09 -0.383807 -0.0489637
3e+09 -0.38525 -0.0445749
