#Hz S ri R 50
1e+08 0.982356 -0.0921681
1.29293e+08 0.973418 -0.1174
1.58586e+08 0.96448 -0.142632
1.87879e+08 0.955542 -0.167864
2.17172e+08 0.943998 -0.190868
2.46465e+08 0.930614 -0.2123
2.75758e+08 0.91723 -0.233732
3.05051e+08 0.903365 -0.254402
3.34343e+08 0.887187 -0.271414
3.63636e+08 0.87101 -0.288426
3.92929e+08 0.854832 -0.305438
4.22222e+08 0.837799 -0.319249
4.51515e+08 0.820495 -0.332043
4.80808e+08 0.80319 -0.344836
5.10101e+08 0.78583 -0.356305
5.39394e+08 0.768365 -0.365257
5.68687e+08 0.750901 -0.374209
5.9798e+08 0.733436 -0.383161
6.27273e+08 0.71691 -0.389023
6.56566e+08 0.700454 -0.394656
6.85859e+08 0.683997 -0.400289
7.15152e+08 0.668209 -0.404791
7.44444e+08 0.653044 -0.408237
7.73737e+08 0.637879 -0.411683
8.0303e+08 0.622846 -0.414946
8.32323e+08 0.608956 -0.416625
8.61616e+08 0.595066 -0.418303
8.90909e+08 0.581176 -0.419982
9.20202e+08 0.568513 -0.420749
9.49495e+08 0.556403 -0.421105
9.78788e+08 0.544294 -0.421461
1.00808e+09 0.532445 -0.42156
1.03737e+09 0.521282 -0.420985
1.06667e+09 0.51012 -0.42041
1.09596e+09 0.498957 -0.419835
1.12525e+09 0.488651 -0.419074
1.15455e+09 0.478481 -0.418284
1.18384e+09 0.468312 -0.417493
1.21313e+09 0.458725 -0.41665
1.24242e+09 0.449855 -0.41574
1.27172e+09 0.440986 -0.414831
1.30101e+09 0.432156 -0.413908
1.3303e+09 0.424466 -0.412587
1.3596e+09 0.416776 -0.411266
1.38889e+09 0.409086 -0.409945
1.41818e+09 0.40174 -0.408511
1.44747e+09 0.394603 -0.407009
1.47677e+09 0.387467 -0.405506
1.50606e+09 0.380429 -0.404065
1.53535e+09 0.373768 -0.402855
1.56465e+09 0.367106 -0.401646
1.59394e+09 0.360445 -0.400437
1.62323e+09 0.354475 -0.399444
1.65253e+09 0.348684 -0.398507
1.68182e+09 0.342894 -0.39757
1.71111e+09 0.337356 -0.396517
1.7404e+09 0.332231 -0.395275
1.7697e+09 0.327106 -0.394034
1.79899e+09 0.321982 -0.392792
1.82828e+09 0.31705 -0.391681
1.85758e+09 0.312126 -0.390576
1.88687e+09 0.307202 -0.38947
1.91616e+09 0.302347 -0.388619
1.94545e+09 0.297547 -0.387976
1.97475e+09 0.292748 -0.387332
2.00404e+09 0.288049 -0.386701
2.03333e+09 0.283982 -0.386141
2.06263e+09 0.279915 -0.385581
2.09192e+09 0.275848 -0.385021
2.12121e+09 0.272007 -0.384458
2.15051e+09 0.268253 -0.383894
2.1798e+09 0.264499 -0.38333
2.20909e+09 0.260711 -0.382747
2.23838e+09 0.256848 -0.382123
2.26768e+09 0.252985 -0.381499
2.29697e+09 0.249121 -0.380876
2.32626e+09 0.245358 -0.380689
2.35556e+09 0.241607 -0.380552
2.38485e+09 0.237856 -0.380416
2.41414e+09 0.234331 -0.380292
2.44343e+09 0.231049 -0.380181
2.47273e+09 0.227767 -0.380069
2.50202e+09 0.224495 -0.379954
2.53131e+09 0.221362 -0.379774
2.56061e+09 0.21823 -0.379595
2.5899e+09 0.215097 -0.379416
2.61919e+09 0.211789 -0.379362
2.64848e+09 0.208388 -0.379373
2.67778e+09 0.204987 -0.379385
2.70707e+09 0.201677 -0.379467
2.73636e+09 0.198653 -0.37977
2.76566e+09 0.195629 -0.380072
2.79495e+09 0.192605 -0.380375
2.82424e+09 0.189691 -0.380937
2.85354e+09 0.186799 -0.381553
2.88283e+09 0.183907 -0.382169
2.91212e+09 0.18101 -0.382591
2.94141e+09 0.178107 -0.382737
2.97071e+09 0.175204 -0.382884
3e+09 0.172301 -0.38303
