#Hz S ri R 50
1e+08 -0.13849 -0.46478
1.29293e+08 -0.201184 -0.412707
1.58586e+08 -0.263113 -0.363206
1.87879e+08 -0.324239 -0.316151
2.17172e+08 -0.359422 -0.281734
2.46465e+08 -0.376823 -0.255387
2.75758e+08 -0.394365 -0.229442
3.05051e+08 -0.410274 -0.205455
3.34343e+08 -0.417805 -0.189169
3.63636e+08 -0.425421 -0.172994
3.92929e+08 -0.433121 -0.156931
4.22222e+08 -0.437302 -0.144756
4.51515e+08 -0.440388 -0.133824
4.80808e+08 -0.443521 -0.122923
5.10101e+08 -0.44618 -0.113033
5.39394e+08 -0.447879 -0.105022
5.68687e+08 -0.449605 -0.0970241
5.9798e+08 -0.451358 -0.0890386
6.27273e+08 -0.451856 -0.0819213
6.56566e+08 -0.452282 -0.0748705
6.85859e+08 -0.452729 -0.0678229
7.15152e+08 -0.45307 -0.0610722
7.44444e+08 -0.453312 -0.0545977
7.73737e+08 -0.453572 -0.0481248
8.0303e+08 -0.453844 -0.0416281
8.32323e+08 -0.454083 -0.0349113
8.61616e+08 -0.454341 -0.0281962
8.90909e+08 -0.45462 -0.0214828
9.20202e+08 -0.454837 -0.0153943
9.49495e+08 -0.455033 -0.00958737
9.78788e+08 -0.455244 -0.0037815
1.00808e+09 -0.455506 0.0018799
1.03737e+09 -0.455875 0.00716353
1.06667e+09 -0.456257 0.0124454
1.09596e+09 -0.456651 0.0177256
1.12525e+09 -0.457057 0.0230039
1.15455e+09 -0.457475 0.0282803
1.18384e+09 -0.457905 0.0335549
1.21313e+09 -0.458329 0.0380103
1.24242e+09 -0.458737 0.0414585
1.27172e+09 -0.45915 0.0449056
1.30101e+09 -0.459568 0.0483514
1.3303e+09 -0.459991 0.051796
1.3596e+09 -0.46042 0.0552393
1.38889e+09 -0.460853 0.0586814
1.41818e+09 -0.459821 0.0615143
1.44747e+09 -0.457891 0.0639788
1.47677e+09 -0.455963 0.0664475
1.50606e+09 -0.454035 0.0689204
1.53535e+09 -0.452108 0.0713976
1.56465e+09 -0.450183 0.0738789
1.59394e+09 -0.448258 0.0763645
1.62323e+09 -0.446855 0.079752
1.65253e+09 -0.445593 0.0833778
1.68182e+09 -0.444335 0.0870077
1.71111e+09 -0.443083 0.0906416
1.7404e+09 -0.441835 0.0942797
1.7697e+09 -0.440593 0.0979219
1.79899e+09 -0.439356 0.101568
1.82828e+09 -0.438158 0.106636
1.85758e+09 -0.436973 0.111759
1.88687e+09 -0.435799 0.116888
1.91616e+09 -0.434635 0.122023
1.94545e+09 -0.433482 0.127163
1.97475e+09 -0.43234 0.132309
2.00404e+09 -0.431459 0.137462
2.03333e+09 -0.432155 0.142629
2.06263e+09 -0.432863 0.147793
2.09192e+09 -0.433582 0.152954
2.12121e+09 -0.434313 0.158113
2.15051e+09 -0.435055 0.163268
2.1798e+09 -0.435809 0.16842
2.20909e+09 -0.436604 0.172826
2.23838e+09 -0.437473 0.175576
2.26768e+09 -0.438345 0.178324
2.29697e+09 -0.43922 0.181071
2.32626e+09 -0.440097 0.183815
2.35556e+09 -0.440978 0.186557
2.38485e+09 -0.441862 0.189298
2.41414e+09 -0.442161 0.191137
2.44343e+09 -0.441831 0.192014
2.47273e+09 -0.441501 0.192891
2.50202e+09 -0.441171 0.193768
2.53131e+09 -0.440841 0.194645
2.56061e+09 -0.440512 0.195523
2.5899e+09 -0.440183 0.196401
2.61919e+09 -0.438766 0.198189
2.64848e+09 -0.436777 0.20046
2.67778e+09 -0.434789 0.202735
2.70707e+09 -0.432801 0.205013
2.73636e+09 -0.430814 0.207296
2.76566e+09 -0.428826 0.209583
2.79495e+09 -0.42684 0.211873
2.82424e+09 -0.424171 0.216494
2.85354e+09 -0.421367 0.22161
2.88283e+09 -0.418571 0.22674
2.91212e+09 -0.415782 0.231883
2.94141e+09 -0.413001 0.237038
2.97071e+09 -0.410227 0.242207
3e+09 -0.407461 0.247388
