#Hz S ri R 50
2e+08 0.531278 -0.735484
2.1407e+08 0.486952 -0.754116
2.28141e+08 0.442241 -0.773192
2.42211e+08 0.397146 -0.792714
2.56281e+08 0.352513 -0.805872
2.70352e+08 0.308618 -0.811106
2.84422e+08 0.264432 -0.816893
2.98492e+08 0.219954 -0.823233
3.12563e+08 0.168625 -0.820961
3.26633e+08 0.116699 -0.817275
3.40704e+08 0.0649907 -0.813223
3.54774e+08 0.0193713 -0.807733
3.68844e+08 -0.0149798 -0.800178
3.82915e+08 -0.0496855 -0.79284
3.96985e+08 -0.0847475 -0.785717
4.11055e+08 -0.115494 -0.77036
4.25126e+08 -0.144969 -0.752907
4.39196e+08 -0.174404 -0.735664
4.53266e+08 -0.203165 -0.719542
4.67337e+08 -0.229967 -0.706452
4.81407e+08 -0.257006 -0.69327
4.95477e+08 -0.284282 -0.679995
5.09548e+08 -0.306719 -0.662756
5.23618e+08 -0.326877 -0.643772
5.37688e+08 -0.34714 -0.62491
5.51759e+08 -0.367308 -0.606424
5.65829e+08 -0.386197 -0.589732
5.79899e+08 -0.405206 -0.57298
5.9397e+08 -0.424335 -0.556166
6.0804e+08 -0.440897 -0.536742
6.22111e+08 -0.455501 -0.515441
6.36181e+08 -0.470146 -0.494199
6.50251e+08 -0.484783 -0.473109
6.64322e+08 -0.496762 -0.457002
6.78392e+08 -0.508823 -0.440848
6.92462e+08 -0.520964 -0.424646
7.06533e+08 -0.531067 -0.406971
7.20603e+08 -0.538752 -0.387679
7.34673e+08 -0.546445 -0.36844
7.48744e+08 -0.554145 -0.349253
7.62814e+08 -0.562141 -0.331744
7.76884e+08 -0.570289 -0.314364
7.90955e+08 -0.578568 -0.296949
8.05025e+08 -0.587262 -0.279421
8.19095e+08 -0.596489 -0.261669
8.33166e+08 -0.605687 -0.243813
8.47236e+08 -0.614857 -0.225852
8.61307e+08 -0.619445 -0.20946
8.75377e+08 -0.622965 -0.193421
8.89447e+08 -0.626538 -0.177331
9.03518e+08 -0.629688 -0.161473
9.17588e+08 -0.631469 -0.146452
9.31658e+08 -0.633308 -0.131449
9.45729e+08 -0.635203 -0.116461
9.59799e+08 -0.637416 -0.101268
9.73869e+08 -0.639747 -0.0859226
9.8794e+08 -0.642069 -0.0705071
1.00201e+09 -0.644192 -0.0552641
1.01608e+09 -0.645174 -0.0414468
1.03015e+09 -0.646183 -0.027632
1.04422e+09 -0.647219 -0.0138197
1.05829e+09 -0.648293 0.000360314
1.07236e+09 -0.649378 0.0148635
1.08643e+09 -0.650463 0.0294493
1.1005e+09 -0.651462 0.044076
1.11457e+09 -0.650191 0.0576208
1.12864e+09 -0.64895 0.071186
1.14271e+09 -0.64774 0.0847718
1.15678e+09 -0.646518 0.0978176
1.17085e+09 -0.645294 0.110293
1.18492e+09 -0.644116 0.122805
1.19899e+09 -0.642985 0.135353
1.21307e+09 -0.640705 0.149409
1.22714e+09 -0.638295 0.163604
1.24121e+09 -0.635843 0.177826
1.25528e+09 -0.63288 0.19062
1.26935e+09 -0.629153 0.201031
1.28342e+09 -0.625472 0.211485
1.29749e+09 -0.621837 0.221985
1.31156e+09 -0.619604 0.234839
1.32563e+09 -0.617639 0.248231
1.3397e+09 -0.61564 0.26166
1.35377e+09 -0.613008 0.274425
1.36784e+09 -0.608727 0.285289
1.38191e+09 -0.604453 0.296156
1.39598e+09 -0.600186 0.307026
1.41005e+09 -0.595295 0.318248
1.42412e+09 -0.590151 0.329641
1.43819e+09 -0.585005 0.34107
1.45226e+09 -0.580073 0.352389
1.46633e+09 -0.576255 0.362985
1.4804e+09 -0.572424 0.373612
1.49447e+09 -0.568578 0.384269
1.50854e+09 -0.564236 0.394692
1.52261e+09 -0.559562 0.404969
1.53668e+09 -0.554867 0.41527
1.55075e+09 -0.550016 0.425526
1.56482e+09 -0.542763 0.434544
1.57889e+09 -0.535497 0.443553
1.59296e+09 -0.528218 0.452555
1.60704e+09 -0.521959 0.461522
1.62111e+09 -0.516723 0.470494
1.63518e+09 -0.511479 0.479511
1.64925e+09 -0.506226 0.488573
1.66332e+09 -0.500978 0.497531
1.67739e+09 -0.495714 0.506505
1.69146e+09 -0.49043 0.515503
1.70553e+09 -0.48469 0.524271
1.7196e+09 -0.478254 0.532655
1.73367e+09 -0.471802 0.541037
1.74774e+09 -0.465333 0.549418
1.76181e+09 -0.457873 0.556493
1.77588e+09 -0.450221 0.563337
1.78995e+09 -0.442568 0.570202
1.80402e+09 -0.435202 0.577823
1.81809e+09 -0.428534 0.587277
1.83216e+09 -0.421821 0.596717
1.84623e+09 -0.415065 0.606142
1.8603e+09 -0.407055 0.613575
1.87437e+09 -0.398592 0.620292
1.88844e+09 -0.390124 0.627022
1.90251e+09 -0.382151 0.633714
1.91658e+09 -0.376462 0.640187
1.93065e+09 -0.370743 0.646677
1.94472e+09 -0.364991 0.653183
1.95879e+09 -0.358456 0.65924
1.97286e+09 -0.351445 0.665026
1.98693e+09 -0.344411 0.67082
2.00101e+09 -0.337255 0.676585
2.01508e+09 -0.328777 0.681896
2.02915e+09 -0.320293 0.687216
2.04322e+09 -0.311805 0.692546
2.05729e+09 -0.303723 0.697862
2.07136e+09 -0.296018 0.703161
2.08543e+09 -0.288307 0.708463
2.0995e+09 -0.280589 0.713769
2.11357e+09 -0.272194 0.719476
2.12764e+09 -0.263753 0.725198
2.14171e+09 -0.255291 0.730919
2.15578e+09 -0.247056 0.736187
2.16985e+09 -0.239154 0.7408
2.18392e+09 -0.231222 0.745408
2.19799e+09 -0.223261 0.75001
2.21206e+09 -0.215048 0.755131
2.22613e+09 -0.206791 0.760342
2.2402e+09 -0.198528 0.765556
2.25427e+09 -0.190104 0.77023
2.26834e+09 -0.181309 0.773641
2.28241e+09 -0.172495 0.777023
2.29648e+09 -0.163664 0.780375
2.31055e+09 -0.155618 0.783452
2.32462e+09 -0.147824 0.786443
2.33869e+09 -0.140017 0.789435
2.35276e+09 -0.132094 0.792423
2.36683e+09 -0.123747 0.79539
2.3809e+09 -0.115393 0.798343
2.39497e+09 -0.107032 0.801283
2.40905e+09 -0.0990262 0.803892
2.42312e+09 -0.0912043 0.806327
2.43719e+09 -0.0833622 0.808766
2.45126e+09 -0.0754055 0.811234
2.46533e+09 -0.066478 0.813933
2.4794e+09 -0.0575496 0.816611
2.49347e+09 -0.0486203 0.819267
2.50754e+09 -0.0406904 0.821518
2.52161e+09 -0.0336209 0.823434
2.53568e+09 -0.0265434 0.825352
2.54975e+09 -0.0194577 0.827272
2.56382e+09 -0.0108856 0.828951
2.57789e+09 -0.00228967 0.830613
2.59196e+09 0.00630308 0.832262
2.60603e+09 0.0145893 0.833961
2.6201e+09 0.0224795 0.83573
2.63417e+09 0.0303827 0.837487
2.64824e+09 0.038299 0.839234
2.66231e+09 0.0458999 0.840358
2.67638e+09 0.0534609 0.841388
2.69045e+09 0.0610283 0.84241
2.70452e+09 0.0684455 0.843434
2.71859e+09 0.0755377 0.844463
2.73266e+09 0.0826353 0.845475
2.74673e+09 0.0897384 0.846472
2.7608e+09 0.0975562 0.846777
2.77487e+09 0.105589 0.846874
2.78894e+09 0.113621 0.846969
2.80302e+09 0.121713 0.846933
2.81709e+09 0.130031 0.84642
2.83116e+09 0.138356 0.845899
2.84523e+09 0.146687 0.84537
2.8593e+09 0.154818 0.845491
2.87337e+09 0.162831 0.845939
2.88744e+09 0.170832 0.846375
2.90151e+09 0.178633 0.846743
2.91558e+09 0.184876 0.846617
2.92965e+09 0.191129 0.846484
2.94372e+09 0.197392 0.846344
2.95779e+09 0.203614 0.845433
2.97186e+09 0.209796 0.843898
2.98593e+09 0.215979 0.842358
3e+09 0.222162 0.840813
