#Hz S ri R 50
2e+08 -0.671129 -0.177643
2.06533e+08 -0.675724 -0.174049
2.13065e+08 -0.680275 -0.170487
2.19598e+08 -0.684781 -0.166958
2.26131e+08 -0.689244 -0.163461
2.32663e+08 -0.693663 -0.159997
2.39196e+08 -0.698039 -0.156566
2.45729e+08 -0.702374 -0.153168
2.52261e+08 -0.706668 -0.149804
2.58794e+08 -0.710921 -0.146475
2.65327e+08 -0.715134 -0.143179
2.71859e+08 -0.719308 -0.139918
2.78392e+08 -0.723444 -0.136692
2.84925e+08 -0.727541 -0.133501
2.91457e+08 -0.731602 -0.130344
2.9799e+08 -0.735626 -0.127224
3.04523e+08 -0.739321 -0.123788
3.11055e+08 -0.74286 -0.120227
3.17588e+08 -0.746377 -0.116693
3.24121e+08 -0.749872 -0.113188
3.30653e+08 -0.753345 -0.109712
3.37186e+08 -0.756796 -0.106264
3.43719e+08 -0.760226 -0.102844
3.50251e+08 -0.76362 -0.099445
3.56784e+08 -0.766609 -0.0958927
3.63317e+08 -0.769585 -0.0923646
3.69849e+08 -0.772548 -0.0888607
3.76382e+08 -0.775499 -0.085381
3.82915e+08 -0.778438 -0.0819254
3.89447e+08 -0.781365 -0.0784939
3.9598e+08 -0.78428 -0.0750866
4.02513e+08 -0.786971 -0.0717022
4.09045e+08 -0.789314 -0.0683375
4.15578e+08 -0.791652 -0.0649934
4.22111e+08 -0.793985 -0.0616696
4.28643e+08 -0.796313 -0.0583663
4.35176e+08 -0.798637 -0.0550833
4.41709e+08 -0.800956 -0.0518205
4.48241e+08 -0.803271 -0.0485779
4.54774e+08 -0.805256 -0.0454137
4.61307e+08 -0.807122 -0.0422854
4.67839e+08 -0.808989 -0.0391705
4.74372e+08 -0.810856 -0.036069
4.80905e+08 -0.812723 -0.032981
4.87437e+08 -0.814592 -0.0299065
4.9397e+08 -0.81646 -0.0268455
5.00503e+08 -0.818305 -0.0237997
5.07035e+08 -0.819855 -0.0207869
5.13568e+08 -0.821406 -0.0177862
5.20101e+08 -0.822959 -0.0147976
5.26633e+08 -0.824513 -0.0118211
5.33166e+08 -0.826069 -0.00885654
5.39698e+08 -0.827627 -0.00590401
5.46231e+08 -0.829186 -0.00296346
5.52764e+08 -0.830583 -0.000134823
5.59296e+08 -0.831757 0.00254803
5.65829e+08 -0.832936 0.00522248
5.72362e+08 -0.834118 0.00788852
5.78894e+08 -0.835303 0.0105462
5.85427e+08 -0.836491 0.0131955
5.9196e+08 -0.837684 0.0158364
5.98492e+08 -0.838879 0.018469
6.05025e+08 -0.83986 0.0209393
6.11558e+08 -0.840779 0.0233572
6.1809e+08 -0.841701 0.0257693
6.24623e+08 -0.842626 0.0281755
6.31156e+08 -0.843555 0.0305757
6.37688e+08 -0.844488 0.0329701
6.44221e+08 -0.845424 0.0353587
6.50754e+08 -0.84634 0.0377176
6.57286e+08 -0.847085 0.0398896
6.63819e+08 -0.847833 0.0420577
6.70352e+08 -0.848585 0.044222
6.76884e+08 -0.849339 0.0463823
6.83417e+08 -0.850097 0.0485387
6.8995e+08 -0.850858 0.0506912
6.96482e+08 -0.851623 0.0528398
7.03015e+08 -0.852252 0.0548535
7.09548e+08 -0.852724 0.0567111
7.1608e+08 -0.853198 0.0585654
7.22613e+08 -0.853674 0.0604164
7.29146e+08 -0.854153 0.0622641
7.35678e+08 -0.854635 0.0641085
7.42211e+08 -0.855119 0.0659495
7.48744e+08 -0.855606 0.0677872
7.55276e+08 -0.855986 0.069572
7.61809e+08 -0.856341 0.0713426
7.68342e+08 -0.856699 0.073111
7.74874e+08 -0.857059 0.0748771
7.81407e+08 -0.857422 0.0766409
7.8794e+08 -0.857788 0.0784025
7.94472e+08 -0.858155 0.0801618
8.01005e+08 -0.858499 0.0818962
8.07538e+08 -0.858697 0.0835047
8.1407e+08 -0.858897 0.0851114
8.20603e+08 -0.859101 0.0867164
8.27136e+08 -0.859306 0.0883196
8.33668e+08 -0.859515 0.089921
8.40201e+08 -0.859726 0.0915207
8.46734e+08 -0.859939 0.0931185
8.53266e+08 -0.860044 0.0947004
8.59799e+08 -0.86004 0.0962666
8.66332e+08 -0.860038 0.0978317
8.72864e+08 -0.860038 0.0993955
8.79397e+08 -0.86004 0.100958
8.8593e+08 -0.860043 0.10252
8.92462e+08 -0.860049 0.10408
8.98995e+08 -0.860056 0.105639
9.05528e+08 -0.85991 0.107029
9.1206e+08 -0.859739 0.108389
9.18593e+08 -0.859569 0.109747
9.25126e+08 -0.859401 0.111105
9.31658e+08 -0.859234 0.112462
9.38191e+08 -0.85907 0.113818
9.44724e+08 -0.858907 0.115173
9.51256e+08 -0.858732 0.11653
9.57789e+08 -0.858496 0.117897
9.64322e+08 -0.858262 0.119264
9.70854e+08 -0.858029 0.12063
9.77387e+08 -0.857798 0.121996
9.8392e+08 -0.857567 0.123362
9.90452e+08 -0.857339 0.124726
9.96985e+08 -0.857111 0.126091
1.00352e+09 -0.856772 0.127457
1.01005e+09 -0.856338 0.128826
1.01658e+09 -0.855905 0.130193
1.02312e+09 -0.855473 0.131561
1.02965e+09 -0.855042 0.132928
1.03618e+09 -0.854611 0.134294
1.04271e+09 -0.854182 0.13566
1.04925e+09 -0.853754 0.137026
1.05578e+09 -0.853112 0.138344
1.06231e+09 -0.852444 0.139655
1.06884e+09 -0.851776 0.140966
1.07538e+09 -0.851109 0.142276
1.08191e+09 -0.850443 0.143586
1.08844e+09 -0.849778 0.144895
1.09497e+09 -0.849113 0.146204
1.10151e+09 -0.84841 0.147498
1.10804e+09 -0.847574 0.148747
1.11457e+09 -0.846738 0.149994
1.12111e+09 -0.845904 0.151241
1.12764e+09 -0.845071 0.152488
1.13417e+09 -0.844239 0.153734
1.1407e+09 -0.843407 0.154979
1.14724e+09 -0.842577 0.156223
1.15377e+09 -0.841598 0.157556
1.1603e+09 -0.84051 0.158955
1.16683e+09 -0.839423 0.160353
1.17337e+09 -0.838337 0.16175
1.1799e+09 -0.837252 0.163147
1.18643e+09 -0.836168 0.164543
1.19296e+09 -0.835085 0.165939
1.1995e+09 -0.834002 0.167334
1.20603e+09 -0.832676 0.168828
1.21256e+09 -0.831331 0.170331
1.2191e+09 -0.829986 0.171833
1.22563e+09 -0.828642 0.173334
1.23216e+09 -0.827299 0.174835
1.23869e+09 -0.825958 0.176336
1.24523e+09 -0.824617 0.177836
1.25176e+09 -0.823209 0.179349
1.25829e+09 -0.821618 0.180896
1.26482e+09 -0.820029 0.182442
1.27136e+09 -0.81844 0.183989
1.27789e+09 -0.816853 0.185535
1.28442e+09 -0.815266 0.18708
1.29095e+09 -0.81368 0.188625
1.29749e+09 -0.812095 0.19017
1.30402e+09 -0.810295 0.191736
1.31055e+09 -0.808362 0.193316
1.31709e+09 -0.80643 0.194896
1.32362e+09 -0.804499 0.196476
1.33015e+09 -0.802569 0.198056
1.33668e+09 -0.80064 0.199636
1.34322e+09 -0.798712 0.201215
1.34975e+09 -0.796784 0.202795
1.35628e+09 -0.794537 0.204321
1.36281e+09 -0.792278 0.205844
1.36935e+09 -0.79002 0.207368
1.37588e+09 -0.787764 0.208892
1.38241e+09 -0.785508 0.210416
1.38894e+09 -0.783254 0.211941
1.39548e+09 -0.781001 0.213465
1.40201e+09 -0.778611 0.214968
1.40854e+09 -0.77591 0.216421
1.41508e+09 -0.773211 0.217875
1.42161e+09 -0.770514 0.219331
1.42814e+09 -0.767818 0.220788
1.43467e+09 -0.765123 0.222246
1.44121e+09 -0.76243 0.223706
1.44774e+09 -0.759739 0.225167
1.45427e+09 -0.756786 0.22656
1.4608e+09 -0.753694 0.227919
1.46734e+09 -0.750602 0.22928
1.47387e+09 -0.747512 0.230645
1.4804e+09 -0.744422 0.232012
1.48693e+09 -0.741333 0.233383
1.49347e+09 -0.738246 0.234755
1.5e+09 -0.735159 0.236131
