#Hz S ri R 50
1e+07 0.943915 -0.119161
1.19192e+07 0.940859 -0.141807
1.38384e+07 0.937279 -0.164336
1.57576e+07 0.933183 -0.186732
1.76768e+07 0.928575 -0.208976
1.9596e+07 0.923465 -0.23105
2.15152e+07 0.91786 -0.25294
2.34343e+07 0.911769 -0.274628
2.53535e+07 0.905201 -0.296098
2.72727e+07 0.898167 -0.317336
2.91919e+07 0.890678 -0.338327
3.11111e+07 0.882744 -0.359057
3.30303e+07 0.874378 -0.379512
3.49495e+07 0.865593 -0.399681
3.68687e+07 0.8564 -0.419551
3.87879e+07 0.846813 -0.439112
4.07071e+07 0.836846 -0.458352
4.26263e+07 0.826513 -0.477261
4.45455e+07 0.815827 -0.495831
4.64646e+07 0.804804 -0.514054
4.83838e+07 0.793457 -0.531921
5.0303e+07 0.781801 -0.549426
5.22222e+07 0.769852 -0.566563
5.41414e+07 0.757623 -0.583326
5.60606e+07 0.74513 -0.59971
5.79798e+07 0.732388 -0.615712
5.9899e+07 0.71941 -0.631328
6.18182e+07 0.706213 -0.646555
6.37374e+07 0.69281 -0.661391
6.56566e+07 0.679216 -0.675835
6.75758e+07 0.665445 -0.689886
6.94949e+07 0.65151 -0.703543
7.14141e+07 0.637427 -0.716807
7.33333e+07 0.623208 -0.729679
7.52525e+07 0.608866 -0.742159
7.71717e+07 0.594415 -0.754251
7.90909e+07 0.579867 -0.765955
8.10101e+07 0.565235 -0.777275
8.29293e+07 0.55053 -0.788214
8.48485e+07 0.535764 -0.798775
8.67677e+07 0.520948 -0.808963
8.86869e+07 0.506094 -0.81878
9.06061e+07 0.491211 -0.828233
9.25253e+07 0.476311 -0.837325
9.44444e+07 0.461402 -0.846062
9.63636e+07 0.446494 -0.854448
9.82828e+07 0.431597 -0.862491
1.00202e+08 0.416719 -0.870194
1.02121e+08 0.401867 -0.877564
1.0404e+08 0.387051 -0.884607
1.0596e+08 0.372278 -0.89133
1.07879e+08 0.357555 -0.897737
1.09798e+08 0.342888 -0.903837
1.11717e+08 0.328284 -0.909635
1.13636e+08 0.31375 -0.915137
1.15556e+08 0.299291 -0.92035
1.17475e+08 0.284912 -0.925282
1.19394e+08 0.270619 -0.929937
1.21313e+08 0.256417 -0.934324
1.23232e+08 0.24231 -0.938449
1.25152e+08 0.228301 -0.942317
1.27071e+08 0.214396 -0.945936
1.2899e+08 0.200598 -0.949313
1.30909e+08 0.18691 -0.952453
1.32828e+08 0.173335 -0.955363
1.34747e+08 0.159876 -0.95805
1.36667e+08 0.146536 -0.96052
1.38586e+08 0.133317 -0.962779
1.40505e+08 0.120222 -0.964833
1.42424e+08 0.107251 -0.966688
1.44343e+08 0.094408 -0.96835
1.46263e+08 0.0816931 -0.969825
1.48182e+08 0.0691081 -0.971119
1.50101e+08 0.0566541 -0.972238
1.5202e+08 0.0443322 -0.973186
1.53939e+08 0.0321433 -0.97397
1.55859e+08 0.0200879 -0.974595
1.57778e+08 0.00816669 -0.975066
1.59697e+08 -0.00361997 -0.975389
1.61616e+08 -0.0152718 -0.975567
1.63535e+08 -0.0267887 -0.975607
1.65455e+08 -0.0381705 -0.975512
1.67374e+08 -0.0494174 -0.975289
1.69293e+08 -0.0605295 -0.97494
1.71212e+08 -0.0715072 -0.974471
1.73131e+08 -0.0823507 -0.973887
1.75051e+08 -0.0930606 -0.97319
1.7697e+08 -0.103637 -0.972386
1.78889e+08 -0.114082 -0.971478
1.80808e+08 -0.124394 -0.970471
1.82727e+08 -0.134576 -0.969368
1.84646e+08 -0.144627 -0.968172
1.86566e+08 -0.154549 -0.966888
1.88485e+08 -0.164342 -0.96552
1.90404e+08 -0.174008 -0.964069
1.92323e+08 -0.183547 -0.96254
1.94242e+08 -0.192961 -0.960936
1.96162e+08 -0.202251 -0.95926
1.98081e+08 -0.211417 -0.957515
2e+08 -0.220462 -0.955704
