#Hz S ri R 50
1e+08 -0.486026 0.0653557
1.29293e+08 -0.429617 0.0844144
1.58586e+08 -0.363277 0.0850185
1.87879e+08 -0.294885 0.0387836
2.17172e+08 -0.253123 -0.0452827
2.46465e+08 -0.259284 -0.144668
2.75758e+08 -0.30572 -0.231472
3.05051e+08 -0.374276 -0.281644
3.34343e+08 -0.451463 -0.302195
3.63636e+08 -0.521608 -0.294679
3.92929e+08 -0.572684 -0.283095
4.22222e+08 -0.621301 -0.254998
4.51515e+08 -0.653688 -0.227478
4.80808e+08 -0.686873 -0.191437
5.10101e+08 -0.698092 -0.153152
5.39394e+08 -0.725154 -0.136317
5.68687e+08 -0.742796 -0.105045
5.9798e+08 -0.74897 -0.0799691
6.27273e+08 -0.757701 -0.0547497
6.56566e+08 -0.768215 -0.0351966
6.85859e+08 -0.776775 -0.0181738
7.15152e+08 -0.779451 0.00812237
7.44444e+08 -0.785656 0.0257305
7.73737e+08 -0.794117 0.0442133
8.0303e+08 -0.791516 0.0596535
8.32323e+08 -0.791762 0.0810004
8.61616e+08 -0.798496 0.0970828
8.90909e+08 -0.791089 0.115593
9.20202e+08 -0.792468 0.126999
9.49495e+08 -0.791638 0.143867
9.78788e+08 -0.789102 0.170902
1.00808e+09 -0.788201 0.177605
1.03737e+09 -0.78648 0.19538
1.06667e+09 -0.788372 0.20911
1.09596e+09 -0.790815 0.228228
1.12525e+09 -0.782302 0.237069
1.15455e+09 -0.78312 0.24999
1.18384e+09 -0.780444 0.264462
1.21313e+09 -0.769737 0.273776
1.24242e+09 -0.774351 0.285282
1.27172e+09 -0.770904 0.298655
1.30101e+09 -0.768378 0.312135
1.3303e+09 -0.763009 0.31725
1.3596e+09 -0.753229 0.323151
1.38889e+09 -0.75709 0.333608
1.41818e+09 -0.749532 0.352997
1.44747e+09 -0.747223 0.360796
1.47677e+09 -0.74587 0.373381
1.50606e+09 -0.73831 0.38568
1.53535e+09 -0.731246 0.392579
1.56465e+09 -0.720136 0.405167
1.59394e+09 -0.711627 0.416767
1.62323e+09 -0.708593 0.428533
1.65253e+09 -0.70633 0.435885
1.68182e+09 -0.700497 0.444553
1.71111e+09 -0.703989 0.45575
1.7404e+09 -0.688051 0.463906
1.7697e+09 -0.675146 0.47504
1.79899e+09 -0.663744 0.492718
1.82828e+09 -0.661513 0.497784
1.85758e+09 -0.658958 0.509249
1.88687e+09 -0.649279 0.519635
1.91616e+09 -0.642345 0.528775
1.94545e+09 -0.631239 0.53794
1.97475e+09 -0.62081 0.548525
2.00404e+09 -0.612815 0.562984
2.03333e+09 -0.60642 0.572625
2.06263e+09 -0.597035 0.575059
2.09192e+09 -0.588641 0.59248
2.12121e+09 -0.576781 0.601715
2.15051e+09 -0.573522 0.611618
2.1798e+09 -0.557254 0.627278
2.20909e+09 -0.555981 0.63001
2.23838e+09 -0.551592 0.638938
2.26768e+09 -0.540108 0.65297
2.29697e+09 -0.520723 0.659623
2.32626e+09 -0.512319 0.665053
2.35556e+09 -0.510722 0.676295
2.38485e+09 -0.503126 0.685047
2.41414e+09 -0.493075 0.688252
2.44343e+09 -0.485472 0.691079
2.47273e+09 -0.476347 0.702686
2.50202e+09 -0.478233 0.717517
2.53131e+09 -0.464085 0.717586
2.56061e+09 -0.455032 0.721259
2.5899e+09 -0.454383 0.725397
2.61919e+09 -0.441618 0.729541
2.64848e+09 -0.432207 0.732659
2.67778e+09 -0.431092 0.735236
2.70707e+09 -0.425825 0.739991
2.73636e+09 -0.429286 0.753073
2.76566e+09 -0.411459 0.751736
2.79495e+09 -0.39668 0.751433
2.82424e+09 -0.391836 0.75128
2.85354e+09 -0.386471 0.759874
2.88283e+09 -0.378672 0.763371
2.91212e+09 -0.370674 0.774428
2.94141e+09 -0.366472 0.771711
2.97071e+09 -0.355902 0.777603
3e+09 -0.345894 0.772387
