#Hz S ri R 50
1e+08 -0.581305 -0.241305
1.29293e+08 -0.640403 -0.18158
1.58586e+08 -0.698361 -0.129023
1.87879e+08 -0.728378 -0.0594009
2.17172e+08 -0.749556 0.0185687
2.46465e+08 -0.74719 0.0961594
2.75758e+08 -0.710244 0.163356
3.05051e+08 -0.661954 0.20641
3.34343e+08 -0.614067 0.235233
3.63636e+08 -0.575776 0.252092
3.92929e+08 -0.540916 0.255494
4.22222e+08 -0.517527 0.258931
4.51515e+08 -0.495513 0.252049
4.80808e+08 -0.482304 0.249413
5.10101e+08 -0.467696 0.252006
5.39394e+08 -0.443945 0.255369
5.68687e+08 -0.438552 0.253942
5.9798e+08 -0.433473 0.250371
6.27273e+08 -0.421466 0.24309
6.56566e+08 -0.414793 0.245496
6.85859e+08 -0.409507 0.249952
7.15152e+08 -0.404182 0.243961
7.44444e+08 -0.39848 0.24818
7.73737e+08 -0.396989 0.254106
8.0303e+08 -0.392682 0.251647
8.32323e+08 -0.386239 0.250066
8.61616e+08 -0.379543 0.252202
8.90909e+08 -0.380671 0.249674
9.20202e+08 -0.36972 0.258996
9.49495e+08 -0.369839 0.259094
9.78788e+08 -0.365305 0.247132
1.00808e+09 -0.365921 0.258537
1.03737e+09 -0.357718 0.256672
1.06667e+09 -0.354618 0.257875
1.09596e+09 -0.354179 0.260488
1.12525e+09 -0.350411 0.263915
1.15455e+09 -0.344078 0.266429
1.18384e+09 -0.345333 0.264676
1.21313e+09 -0.345281 0.262772
1.24242e+09 -0.345733 0.268624
1.27172e+09 -0.340824 0.266501
1.30101e+09 -0.335886 0.261835
1.3303e+09 -0.332767 0.265478
1.3596e+09 -0.323561 0.26586
1.38889e+09 -0.322278 0.264483
1.41818e+09 -0.317926 0.271266
1.44747e+09 -0.318427 0.27413
1.47677e+09 -0.317008 0.271496
1.50606e+09 -0.312132 0.270184
1.53535e+09 -0.311697 0.270107
1.56465e+09 -0.297918 0.268441
1.59394e+09 -0.291527 0.275192
1.62323e+09 -0.290121 0.277452
1.65253e+09 -0.289753 0.283224
1.68182e+09 -0.288183 0.286266
1.71111e+09 -0.283742 0.277013
1.7404e+09 -0.28001 0.284504
1.7697e+09 -0.271201 0.284867
1.79899e+09 -0.269307 0.290122
1.82828e+09 -0.267746 0.292478
1.85758e+09 -0.26628 0.297488
1.88687e+09 -0.267246 0.303895
1.91616e+09 -0.258391 0.300287
1.94545e+09 -0.259532 0.300213
1.97475e+09 -0.252835 0.30792
2.00404e+09 -0.251338 0.309239
2.03333e+09 -0.243748 0.308788
2.06263e+09 -0.242524 0.316161
2.09192e+09 -0.248626 0.316743
2.12121e+09 -0.243585 0.322042
2.15051e+09 -0.23038 0.322021
2.1798e+09 -0.244164 0.321364
2.20909e+09 -0.223973 0.324361
2.23838e+09 -0.225628 0.3345
2.26768e+09 -0.217584 0.340818
2.29697e+09 -0.22849 0.339699
2.32626e+09 -0.238792 0.338405
2.35556e+09 -0.232252 0.346671
2.38485e+09 -0.229717 0.342603
2.41414e+09 -0.22622 0.345423
2.44343e+09 -0.228771 0.346101
2.47273e+09 -0.227388 0.346198
2.50202e+09 -0.22647 0.35658
2.53131e+09 -0.226586 0.361267
2.56061e+09 -0.225154 0.356016
2.5899e+09 -0.231237 0.344974
2.61919e+09 -0.224643 0.355244
2.64848e+09 -0.214297 0.360721
2.67778e+09 -0.21712 0.359318
2.70707e+09 -0.215425 0.359291
2.73636e+09 -0.219141 0.363236
2.76566e+09 -0.210731 0.358336
2.79495e+09 -0.205622 0.359517
2.82424e+09 -0.199836 0.354346
2.85354e+09 -0.196452 0.358258
2.88283e+09 -0.192093 0.359704
2.91212e+09 -0.192426 0.365829
2.94141e+09 -0.185747 0.365416
2.97071e+09 -0.185667 0.365316
3e+09 -0.179804 0.359548
