
! TriQuint Semiconductor
! TQP7M9101 Power Amplifier
! SOT-89 Package
! The data is for the unmatched device in a 50 Ohm system, 2-port file de-embedded to the device leads.
! Device bias: +5V V @ 85 mA Icq
! Temperature: 25C
! Date: 05/12/2011
! Lot Code: I321 
!  Port 1 corresponds to Pin 1 on the TQP7M9101 (RF input)
!  Port 2 corresponds to Pin 3 on the TQP7M9101 (RF output)
! All data in ma (Magnitude/Angle) format 
! freq-unit   param-type   data-format   keyword   impedance-ohms
# GHZ   S   MA   R   50
!-----------------------------------------------------------------------------
     !Freq     S11Mag     S11Ang     S21Mag     S21Ang     S12Mag     S12Ang     S22Mag     S22Ang           
   +0.0100	   +0.4050	 -175.1734	  +16.3595	 +169.0295	   +0.0248	   +4.5072	   +0.1648	  -77.3987
   +0.0200	   +0.4391	 -173.7042	  +15.1244	 +159.7163	   +0.0266	   +4.1900	   +0.2927	 -103.3914
   +0.0300	   +0.4634	 -174.0123	  +13.6373	 +152.6624	   +0.0277	   +3.4878	   +0.3943	 -119.0925
   +0.0400	   +0.4865	 -175.8778	  +12.2109	 +147.7977	   +0.0288	   +1.3262	   +0.4664	 -129.5651
   +0.0500	   +0.5007	 -177.6946	  +11.0504	 +144.8661	   +0.0293	   -1.2965	   +0.5198	 -136.8317
   +0.0600	   +0.5047	 -179.5634	  +10.0695	 +142.8078	   +0.0298	   -3.6805	   +0.5520	 -142.3484
   +0.0700	   +0.5050	 +177.7836	   +9.1401	 +141.0715	   +0.0298	   -5.9249	   +0.5757	 -147.8549
   +0.0800	   +0.5008	 +176.3172	   +8.4726	 +140.2995	   +0.0298	   -7.6723	   +0.5950	 -151.5551
   +0.0900	   +0.4959	 +174.2836	   +7.9020	 +139.2397	   +0.0292	  -12.3833	   +0.6132	 -154.9845
   +0.1000	   +0.4904	 +172.3414	   +7.4521	 +138.2909	   +0.0284	  -14.1192	   +0.6294	 -157.4562
   +0.1100	   +0.4720	 +171.0088	   +6.9142	 +137.8508	   +0.0277	  -16.1468	   +0.6406	 -159.8861
   +0.1200	   +0.4567	 +169.7065	   +6.5558	 +137.4661	   +0.0267	  -18.9050	   +0.6522	 -162.2900
   +0.1300	   +0.4364	 +168.8182	   +6.1691	 +137.7588	   +0.0261	  -22.1142	   +0.6667	 -164.3097
   +0.1400	   +0.4207	 +167.3549	   +5.8464	 +137.5234	   +0.0251	  -23.7865	   +0.6838	 -166.3247
   +0.1500	   +0.3943	 +166.8065	   +5.4507	 +137.6431	   +0.0228	  -26.5768	   +0.6957	 -168.1996
   +0.1600	   +0.3696	 +166.8318	   +5.1216	 +137.7318	   +0.0219	  -28.7012	   +0.7126	 -169.7469
   +0.1700	   +0.3433	 +168.4404	   +4.7540	 +139.2974	   +0.0199	  -30.4438	   +0.7114	 -171.7048
   +0.1800	   +0.3165	 +169.9368	   +4.4454	 +140.3590	   +0.0181	  -32.0744	   +0.7266	 -173.9412
   +0.1900	   +0.2924	 +173.2563	   +4.1333	 +142.8292	   +0.0161	  -30.2827	   +0.7320	 -175.7109
   +0.2000	   +0.2721	 +178.6312	   +3.8536	 +145.9495	   +0.0134	  -32.8379	   +0.7369	 -177.9637
   +0.2100	   +0.2582	 -175.4506	   +3.6434	 +150.1761	   +0.0119	  -26.2378	   +0.7450	 -179.9906
   +0.2200	   +0.2574	 -167.6476	   +3.5212	 +154.8279	   +0.0101	  -20.4480	   +0.7518	 +178.0227
   +0.2300	   +0.2644	 -160.4064	   +3.4838	 +160.2330	   +0.0086	  -14.2012	   +0.7591	 +176.0856
   +0.2400	   +0.2811	 -153.9481	   +3.4900	 +165.0242	   +0.0074	   +1.6507	   +0.7533	 +173.7741
   +0.2500	   +0.3059	 -149.2794	   +3.6122	 +170.0245	   +0.0081	  +15.3134	   +0.7535	 +172.0612
   +0.2600	   +0.3342	 -145.6330	   +3.7608	 +173.8941	   +0.0096	  +31.1391	   +0.7463	 +170.0015
   +0.2700	   +0.3633	 -143.9493	   +3.9366	 +176.4230	   +0.0108	  +36.4986	   +0.7335	 +167.8125
   +0.2800	   +0.3984	 -142.1435	   +4.1807	 +178.7318	   +0.0126	  +42.8422	   +0.7254	 +166.4771
   +0.2900	   +0.4316	 -142.4309	   +4.4411	 +179.2503	   +0.0141	  +42.5386	   +0.7152	 +164.5412
   +0.3000	   +0.4574	 -142.8671	   +4.6472	 -179.8615	   +0.0161	  +44.5162	   +0.7018	 +163.5368
   +0.3100	   +0.4792	 -143.1987	   +4.8758	 -179.7762	   +0.0179	  +43.3671	   +0.6853	 +161.8232
   +0.3200	   +0.5106	 -144.8556	   +5.0915	 +179.4835	   +0.0195	  +42.6637	   +0.6810	 +160.5054
   +0.3300	   +0.5340	 -145.3817	   +5.3219	 +179.6031	   +0.0209	  +42.6164	   +0.6613	 +159.7689
   +0.3400	   +0.5555	 -147.2309	   +5.4877	 +178.1542	   +0.0223	  +38.4748	   +0.6529	 +158.0773
   +0.3500	   +0.5741	 -148.1305	   +5.6602	 +178.0052	   +0.0238	  +39.6619	   +0.6398	 +157.6799
   +0.3600	   +0.5938	 -149.9472	   +5.8129	 +176.6870	   +0.0249	  +37.8919	   +0.6320	 +156.4294
   +0.3700	   +0.6085	 -151.5416	   +5.9368	 +175.8660	   +0.0261	  +34.9996	   +0.6225	 +156.2220
   +0.3800	   +0.6227	 -152.6903	   +6.0943	 +174.4644	   +0.0269	  +34.8296	   +0.6121	 +155.1674
   +0.3900	   +0.6343	 -153.1650	   +6.2261	 +174.2320	   +0.0281	  +34.1801	   +0.5984	 +154.5875
   +0.4000	   +0.6500	 -154.9449	   +6.3665	 +172.6545	   +0.0287	  +32.6530	   +0.5978	 +155.0298
   +0.4100	   +0.6542	 -156.1718	   +6.3711	 +171.6914	   +0.0296	  +30.2250	   +0.5809	 +153.7136
   +0.4200	   +0.6713	 -157.3541	   +6.4800	 +170.0394	   +0.0306	  +29.0452	   +0.5820	 +153.4793
   +0.4300	   +0.6728	 -158.8429	   +6.5591	 +169.1744	   +0.0304	  +28.3519	   +0.5671	 +153.2074
   +0.4400	   +0.6908	 -159.4780	   +6.6758	 +168.0260	   +0.0314	  +27.1371	   +0.5633	 +154.1971
   +0.4500	   +0.6906	 -160.6107	   +6.6867	 +167.3607	   +0.0321	  +26.1463	   +0.5566	 +153.0696
   +0.4600	   +0.7009	 -161.9264	   +6.8023	 +165.4855	   +0.0322	  +25.4205	   +0.5522	 +152.8678
   +0.4700	   +0.7058	 -163.3890	   +6.7557	 +164.7896	   +0.0330	  +23.9363	   +0.5443	 +152.4464
   +0.4800	   +0.7127	 -164.3707	   +6.9004	 +163.6361	   +0.0326	  +21.7355	   +0.5441	 +152.7465
   +0.4900	   +0.7171	 -165.0565	   +6.8179	 +163.0276	   +0.0331	  +21.8847	   +0.5303	 +151.5901
   +0.5000	   +0.7256	 -165.9112	   +6.9892	 +161.7587	   +0.0335	  +19.9834	   +0.5303	 +151.5745
   +0.5100	   +0.7146	 -167.6262	   +6.8545	 +160.5454	   +0.0341	  +20.5557	   +0.5314	 +151.6879
   +0.5200	   +0.7239	 -167.6142	   +6.9242	 +160.0930	   +0.0340	  +18.7913	   +0.5184	 +151.2041
   +0.5300	   +0.7279	 -168.7598	   +6.8760	 +158.7777	   +0.0341	  +18.5882	   +0.5177	 +151.0810
   +0.5400	   +0.7385	 -169.3913	   +6.9740	 +157.8526	   +0.0347	  +17.2059	   +0.5118	 +150.0267
   +0.5500	   +0.7400	 -170.6507	   +6.9904	 +157.3227	   +0.0348	  +17.1730	   +0.5150	 +150.4604
   +0.5600	   +0.7455	 -171.4596	   +6.9524	 +155.7985	   +0.0352	  +16.1898	   +0.5093	 +150.9591
   +0.5700	   +0.7509	 -172.0244	   +7.0317	 +154.8114	   +0.0358	  +15.2232	   +0.5064	 +149.7703
   +0.5800	   +0.7565	 -172.5086	   +7.0011	 +154.3839	   +0.0359	  +14.5289	   +0.4983	 +150.9321
   +0.5900	   +0.7419	 -173.5263	   +6.9722	 +152.9235	   +0.0353	  +13.4938	   +0.5033	 +150.3749
   +0.6000	   +0.7561	 -173.9997	   +7.0222	 +152.4175	   +0.0361	  +13.2478	   +0.4999	 +149.8914
   +0.6100	   +0.7564	 -174.3897	   +7.0323	 +152.0017	   +0.0360	  +12.6845	   +0.4900	 +150.1894
   +0.6200	   +0.7672	 -175.0045	   +7.0842	 +151.1119	   +0.0361	  +11.9671	   +0.4840	 +149.9966
   +0.6300	   +0.7569	 -176.1950	   +6.9541	 +149.2049	   +0.0362	  +11.0035	   +0.4875	 +150.0353
   +0.6400	   +0.7634	 -176.7710	   +7.0264	 +148.9833	   +0.0366	  +10.7812	   +0.4894	 +150.1151
   +0.6500	   +0.7703	 -176.6543	   +7.0409	 +148.1115	   +0.0366	   +9.8667	   +0.4868	 +148.8890
   +0.6600	   +0.7684	 -177.7556	   +6.9991	 +147.3826	   +0.0362	   +9.0023	   +0.4795	 +149.6420
   +0.6700	   +0.7697	 -178.1551	   +7.0053	 +146.4811	   +0.0363	   +9.0122	   +0.4789	 +149.8400
   +0.6800	   +0.7774	 -178.4838	   +7.0914	 +145.9346	   +0.0367	   +8.6634	   +0.4786	 +149.0290
   +0.6900	   +0.7767	 -178.7842	   +6.9764	 +144.9001	   +0.0367	   +6.9762	   +0.4806	 +148.3000
   +0.7000	   +0.7752	 -179.6278	   +6.9844	 +144.9633	   +0.0365	   +7.0341	   +0.4728	 +148.1679
   +0.7100	   +0.7783	 -179.9753	   +6.9619	 +143.3897	   +0.0366	   +6.6472	   +0.4749	 +148.3894
   +0.7200	   +0.7807	 +178.8196	   +6.9685	 +142.8053	   +0.0373	   +5.5112	   +0.4695	 +149.3572
   +0.7300	   +0.7797	 +178.6005	   +6.9502	 +141.3861	   +0.0372	   +6.0408	   +0.4781	 +148.7361
   +0.7400	   +0.7819	 +178.2017	   +6.9612	 +141.6663	   +0.0369	   +5.8812	   +0.4698	 +148.7752
   +0.7500	   +0.7913	 +178.0285	   +6.9245	 +140.9171	   +0.0375	   +4.7968	   +0.4691	 +147.2203
   +0.7600	   +0.7875	 +177.0058	   +6.8867	 +139.9887	   +0.0368	   +4.1557	   +0.4692	 +148.2360
   +0.7700	   +0.7954	 +177.0883	   +6.8433	 +139.5650	   +0.0371	   +3.8219	   +0.4727	 +147.5868
   +0.7800	   +0.7953	 +176.3524	   +6.8557	 +138.9968	   +0.0374	   +3.9355	   +0.4691	 +147.0238
   +0.7900	   +0.7923	 +175.6524	   +6.8095	 +137.8264	   +0.0370	   +2.4147	   +0.4652	 +148.2791
   +0.8000	   +0.7941	 +175.8389	   +6.8575	 +137.7156	   +0.0370	   +3.4244	   +0.4661	 +147.5524
   +0.8100	   +0.7930	 +175.3470	   +6.7850	 +136.4725	   +0.0376	   +3.1443	   +0.4671	 +146.8743
   +0.8200	   +0.8010	 +174.9117	   +6.8454	 +136.3237	   +0.0375	   +2.5414	   +0.4673	 +146.4391
   +0.8300	   +0.7962	 +174.2477	   +6.7777	 +135.2598	   +0.0373	   +1.2675	   +0.4601	 +147.0689
   +0.8400	   +0.7949	 +173.8643	   +6.8098	 +134.6427	   +0.0373	   +0.8332	   +0.4602	 +147.1141
   +0.8500	   +0.7973	 +173.7310	   +6.7321	 +133.6776	   +0.0374	   +0.9385	   +0.4664	 +147.1454
   +0.8600	   +0.8049	 +173.1711	   +6.7891	 +133.2252	   +0.0377	   +0.4318	   +0.4561	 +146.3668
   +0.8700	   +0.8017	 +172.5303	   +6.7204	 +132.2864	   +0.0381	   -0.6001	   +0.4536	 +146.5510
   +0.8800	   +0.7985	 +172.4081	   +6.7535	 +131.5370	   +0.0377	   -1.2851	   +0.4554	 +146.4793
   +0.8900	   +0.7996	 +171.6522	   +6.6796	 +130.9600	   +0.0382	   -1.9422	   +0.4549	 +146.8611
   +0.9000	   +0.7984	 +172.0337	   +6.6882	 +130.8125	   +0.0376	   -1.4530	   +0.4588	 +145.5393
   +0.9100	   +0.7994	 +170.9904	   +6.6725	 +129.5887	   +0.0375	   -2.2217	   +0.4569	 +145.7744
   +0.9200	   +0.8027	 +170.9087	   +6.6564	 +129.4741	   +0.0370	   -1.1475	   +0.4515	 +144.9778
   +0.9300	   +0.7968	 +170.2429	   +6.6143	 +128.4342	   +0.0372	   -2.3287	   +0.4471	 +145.4878
   +0.9400	   +0.8047	 +169.9340	   +6.6425	 +127.9073	   +0.0379	   -2.7717	   +0.4472	 +145.8589
   +0.9500	   +0.8046	 +169.6874	   +6.6096	 +127.8824	   +0.0385	   -3.6966	   +0.4518	 +144.9406
   +0.9600	   +0.8089	 +169.5113	   +6.6436	 +127.0480	   +0.0380	   -3.5378	   +0.4559	 +144.3553
   +0.9700	   +0.8089	 +168.5095	   +6.5969	 +125.8571	   +0.0377	   -2.8485	   +0.4472	 +145.4283
   +0.9800	   +0.8072	 +167.6789	   +6.5370	 +124.9377	   +0.0384	   -5.4449	   +0.4402	 +145.9904
   +0.9900	   +0.8140	 +167.5201	   +6.5492	 +124.0656	   +0.0374	   -5.3234	   +0.4410	 +144.8191
   +1.0000	   +0.8116	 +167.4343	   +6.5262	 +123.8969	   +0.0381	   -4.7436	   +0.4440	 +144.4829
   +1.0100	   +0.8071	 +167.2700	   +6.4772	 +123.2307	   +0.0374	   -4.6371	   +0.4490	 +144.8218
   +1.0200	   +0.8178	 +166.3195	   +6.5045	 +122.6122	   +0.0381	   -5.4463	   +0.4431	 +143.1214
   +1.0300	   +0.8067	 +165.8628	   +6.4306	 +122.0259	   +0.0379	   -5.7605	   +0.4419	 +144.6190
   +1.0400	   +0.8117	 +166.1147	   +6.4449	 +121.7116	   +0.0390	   -5.6488	   +0.4397	 +144.2395
   +1.0500	   +0.8109	 +165.9512	   +6.4185	 +121.4500	   +0.0382	   -6.5032	   +0.4441	 +144.3774
   +1.0600	   +0.8121	 +165.2311	   +6.4023	 +120.2934	   +0.0382	   -7.0654	   +0.4416	 +143.9169
   +1.0700	   +0.8174	 +165.1019	   +6.3998	 +120.1068	   +0.0380	   -7.9267	   +0.4369	 +144.0054
   +1.0800	   +0.8200	 +164.9884	   +6.3486	 +119.2877	   +0.0378	   -7.6067	   +0.4380	 +143.8790
   +1.0900	   +0.8250	 +164.1088	   +6.3914	 +118.3516	   +0.0380	   -7.5711	   +0.4390	 +143.7076
   +1.1000	   +0.8218	 +163.7612	   +6.3641	 +118.0426	   +0.0377	   -9.1163	   +0.4401	 +143.6390
   +1.1100	   +0.8137	 +163.7293	   +6.2889	 +117.1460	   +0.0373	   -8.4752	   +0.4411	 +143.8476
   +1.1200	   +0.8156	 +163.3531	   +6.2492	 +116.6471	   +0.0375	   -8.0523	   +0.4412	 +142.9938
   +1.1300	   +0.8191	 +162.9503	   +6.2629	 +115.9268	   +0.0377	   -9.6109	   +0.4364	 +143.0335
   +1.1400	   +0.8164	 +162.9766	   +6.1703	 +115.7276	   +0.0381	   -8.5885	   +0.4418	 +143.3818
   +1.1500	   +0.8181	 +162.3917	   +6.1498	 +115.2751	   +0.0378	   -9.4125	   +0.4334	 +143.0232
   +1.1600	   +0.8268	 +162.1817	   +6.2192	 +114.7924	   +0.0386	   -9.7362	   +0.4374	 +141.3271
   +1.1700	   +0.8254	 +161.5744	   +6.1649	 +114.1127	   +0.0383	  -10.1065	   +0.4318	 +141.9739
   +1.1800	   +0.8258	 +161.3086	   +6.1438	 +114.0859	   +0.0376	  -10.7387	   +0.4369	 +142.4637
   +1.1900	   +0.8212	 +161.2351	   +6.1324	 +113.2867	   +0.0375	  -10.2439	   +0.4322	 +142.6430
   +1.2000	   +0.8210	 +160.4995	   +6.1005	 +112.4844	   +0.0378	  -10.2263	   +0.4322	 +142.8081
   +1.2100	   +0.8177	 +160.5555	   +6.0840	 +111.9423	   +0.0381	  -10.4462	   +0.4329	 +142.8756
   +1.2200	   +0.8154	 +160.1246	   +6.0242	 +111.2021	   +0.0374	  -11.0060	   +0.4361	 +142.4048
   +1.2300	   +0.8238	 +160.0332	   +6.0217	 +111.0422	   +0.0379	  -10.5775	   +0.4358	 +142.6815
   +1.2400	   +0.8254	 +159.8015	   +5.9647	 +110.2396	   +0.0380	  -10.7142	   +0.4379	 +142.0315
   +1.2500	   +0.8247	 +159.6941	   +5.9712	 +110.1242	   +0.0379	  -12.2468	   +0.4376	 +142.5363
   +1.2600	   +0.8283	 +158.9802	   +5.9808	 +109.9040	   +0.0381	  -13.0659	   +0.4351	 +141.2978
   +1.2700	   +0.8267	 +158.8718	   +5.9425	 +108.9739	   +0.0378	  -12.0721	   +0.4333	 +141.9559
   +1.2800	   +0.8269	 +158.5889	   +5.9126	 +108.6961	   +0.0373	  -12.4684	   +0.4295	 +142.0800
   +1.2900	   +0.8294	 +157.9461	   +5.9966	 +107.8699	   +0.0379	  -13.0314	   +0.4302	 +141.7715
   +1.3000	   +0.8294	 +157.9418	   +5.9412	 +107.2637	   +0.0383	  -14.0681	   +0.4255	 +142.0789
   +1.3100	   +0.8290	 +157.4462	   +5.9229	 +106.3269	   +0.0382	  -13.4924	   +0.4293	 +141.9168
   +1.3200	   +0.8294	 +157.6693	   +5.8991	 +105.8073	   +0.0380	  -14.6399	   +0.4303	 +142.1576
   +1.3300	   +0.8265	 +157.4348	   +5.8684	 +105.1648	   +0.0379	  -13.9817	   +0.4257	 +141.4287
   +1.3400	   +0.8211	 +157.0447	   +5.8074	 +104.7794	   +0.0381	  -13.6909	   +0.4254	 +141.0571
   +1.3500	   +0.8202	 +157.4329	   +5.7494	 +104.6700	   +0.0382	  -14.5968	   +0.4206	 +141.1233
   +1.3600	   +0.8196	 +156.7521	   +5.7490	 +103.9932	   +0.0381	  -14.8186	   +0.4187	 +140.5687
   +1.3700	   +0.8234	 +156.6207	   +5.7201	 +103.9064	   +0.0377	  -13.9575	   +0.4178	 +140.7284
   +1.3800	   +0.8268	 +155.9780	   +5.7827	 +103.1262	   +0.0384	  -15.4568	   +0.4210	 +140.3348
   +1.3900	   +0.8274	 +156.2497	   +5.7036	 +103.1856	   +0.0383	  -15.1251	   +0.4164	 +140.6621
   +1.4000	   +0.8246	 +155.8244	   +5.7242	 +102.2905	   +0.0385	  -15.7223	   +0.4134	 +139.6650
   +1.4100	   +0.8249	 +155.1662	   +5.6810	 +101.6402	   +0.0379	  -16.1811	   +0.4167	 +139.7976
   +1.4200	   +0.8293	 +154.6966	   +5.6850	 +101.1024	   +0.0383	  -15.9246	   +0.4182	 +139.4683
   +1.4300	   +0.8281	 +154.4567	   +5.6834	 +100.5593	   +0.0380	  -16.7942	   +0.4219	 +139.4998
   +1.4400	   +0.8297	 +154.6112	   +5.6517	 +100.4430	   +0.0379	  -17.2335	   +0.4198	 +139.6910
   +1.4500	   +0.8298	 +154.0965	   +5.6328	  +99.7771	   +0.0383	  -16.4077	   +0.4203	 +139.1350
   +1.4600	   +0.8325	 +153.6745	   +5.6217	  +99.5090	   +0.0382	  -17.9161	   +0.4214	 +138.7967
   +1.4700	   +0.8379	 +153.6085	   +5.6534	  +98.5182	   +0.0388	  -17.6877	   +0.4232	 +139.6850
   +1.4800	   +0.8323	 +153.3109	   +5.6158	  +97.8307	   +0.0389	  -17.1370	   +0.4146	 +139.2939
   +1.4900	   +0.8314	 +153.1443	   +5.5751	  +97.5084	   +0.0389	  -18.0376	   +0.4182	 +139.6894
   +1.5000	   +0.8311	 +152.5665	   +5.5902	  +96.8323	   +0.0379	  -19.6556	   +0.4161	 +139.2927
   +1.5100	   +0.8342	 +152.3222	   +5.5469	  +96.4340	   +0.0386	  -18.2747	   +0.4107	 +139.0067
   +1.5200	   +0.8318	 +152.2626	   +5.5521	  +95.8224	   +0.0380	  -18.7732	   +0.4121	 +138.8466
   +1.5300	   +0.8343	 +151.7719	   +5.5389	  +95.2045	   +0.0387	  -19.2103	   +0.4140	 +139.0143
   +1.5400	   +0.8262	 +151.7689	   +5.5044	  +94.7117	   +0.0387	  -18.6775	   +0.4111	 +139.1538
   +1.5500	   +0.8267	 +150.7268	   +5.4566	  +94.0641	   +0.0389	  -19.1405	   +0.4041	 +138.3212
   +1.5600	   +0.8276	 +150.8830	   +5.4259	  +94.0199	   +0.0386	  -19.5098	   +0.4027	 +138.3333
   +1.5700	   +0.8248	 +150.3521	   +5.3906	  +93.3520	   +0.0382	  -20.1038	   +0.3991	 +137.5677
   +1.5800	   +0.8215	 +150.2960	   +5.3807	  +93.2852	   +0.0384	  -20.6007	   +0.3995	 +137.7663
   +1.5900	   +0.8238	 +149.9597	   +5.3692	  +92.6244	   +0.0378	  -20.8669	   +0.4004	 +137.0523
   +1.6000	   +0.8261	 +149.1608	   +5.3586	  +91.9608	   +0.0383	  -19.6588	   +0.4017	 +136.0358
   +1.6100	   +0.8251	 +149.2299	   +5.3702	  +91.3703	   +0.0386	  -20.3852	   +0.4030	 +136.8379
   +1.6200	   +0.8259	 +148.9015	   +5.3573	  +91.4049	   +0.0382	  -21.9661	   +0.4001	 +135.8514
   +1.6300	   +0.8327	 +148.6995	   +5.3751	  +90.6818	   +0.0384	  -20.5784	   +0.4043	 +137.1643
   +1.6400	   +0.8384	 +148.2272	   +5.3364	  +89.8663	   +0.0383	  -21.5865	   +0.4068	 +136.0290
   +1.6500	   +0.8282	 +148.5503	   +5.2676	  +89.7212	   +0.0388	  -22.1709	   +0.4043	 +135.7416
   +1.6600	   +0.8354	 +147.6470	   +5.2776	  +88.6481	   +0.0383	  -21.3994	   +0.4078	 +135.3926
   +1.6700	   +0.8396	 +147.7611	   +5.2757	  +88.4195	   +0.0390	  -22.5521	   +0.4108	 +136.0235
   +1.6800	   +0.8288	 +147.6641	   +5.2407	  +88.2594	   +0.0383	  -23.5461	   +0.4064	 +135.1369
   +1.6900	   +0.8335	 +147.3119	   +5.2213	  +87.8884	   +0.0389	  -22.6583	   +0.4053	 +135.4362
   +1.7000	   +0.8300	 +147.2389	   +5.2316	  +87.4858	   +0.0384	  -22.9720	   +0.4014	 +135.5452
   +1.7100	   +0.8401	 +147.1787	   +5.2349	  +86.6740	   +0.0392	  -23.4677	   +0.3955	 +135.8550
   +1.7200	   +0.8270	 +146.2935	   +5.1699	  +86.0302	   +0.0385	  -24.2182	   +0.4050	 +134.3787
   +1.7300	   +0.8376	 +145.9736	   +5.1790	  +85.6771	   +0.0389	  -24.7174	   +0.3925	 +135.1260
   +1.7400	   +0.8296	 +146.0311	   +5.1501	  +85.2986	   +0.0386	  -23.6928	   +0.3994	 +134.5139
   +1.7500	   +0.8354	 +145.5349	   +5.1493	  +84.6651	   +0.0383	  -24.4465	   +0.3941	 +135.2667
   +1.7600	   +0.8294	 +144.9873	   +5.0899	  +83.7657	   +0.0380	  -25.4251	   +0.4003	 +133.1942
   +1.7700	   +0.8254	 +144.8657	   +5.0805	  +83.7541	   +0.0386	  -23.3596	   +0.3931	 +133.6049
   +1.7800	   +0.8347	 +144.3179	   +5.0792	  +82.7957	   +0.0390	  -24.7761	   +0.3989	 +133.8966
   +1.7900	   +0.8252	 +143.8586	   +5.0151	  +82.5231	   +0.0392	  -24.4229	   +0.3954	 +132.9876
   +1.8000	   +0.8268	 +143.3623	   +5.0024	  +82.3235	   +0.0380	  -25.6363	   +0.3959	 +132.8558
   +1.8100	   +0.8259	 +143.2580	   +4.9954	  +82.0160	   +0.0382	  -25.7037	   +0.4016	 +131.5685
   +1.8200	   +0.8312	 +143.4768	   +4.9988	  +81.8010	   +0.0386	  -26.1122	   +0.3952	 +132.2023
   +1.8300	   +0.8272	 +142.9475	   +5.0028	  +81.6833	   +0.0379	  -26.6192	   +0.3968	 +132.5280
   +1.8400	   +0.8279	 +142.6887	   +4.9747	  +80.6884	   +0.0377	  -26.9540	   +0.4005	 +132.2851
   +1.8500	   +0.8297	 +142.6011	   +4.9639	  +80.3394	   +0.0386	  -27.4231	   +0.3985	 +131.4790
   +1.8600	   +0.8338	 +142.2078	   +4.9539	  +79.7750	   +0.0392	  -27.0097	   +0.3995	 +131.9441
   +1.8700	   +0.8384	 +141.8206	   +4.9563	  +79.1943	   +0.0384	  -27.9110	   +0.3968	 +131.4458
   +1.8800	   +0.8277	 +141.3557	   +4.9255	  +78.3470	   +0.0383	  -27.2165	   +0.4051	 +131.3455
   +1.8900	   +0.8334	 +141.3166	   +4.9115	  +77.9729	   +0.0383	  -28.3248	   +0.4045	 +131.3207
   +1.9000	   +0.8318	 +141.0776	   +4.8826	  +77.3140	   +0.0388	  -28.3869	   +0.4085	 +130.8100
   +1.9100	   +0.8256	 +140.9919	   +4.8862	  +77.3116	   +0.0389	  -28.4595	   +0.3909	 +129.6151
   +1.9200	   +0.8360	 +140.2603	   +4.8724	  +76.7506	   +0.0387	  -29.3040	   +0.3995	 +131.3795
