# HZ S RI R 50
1.00000000000e+00 +1.00000000000e+00 -6.28318530718e-10
1.25892541179e+00 +1.00000000000e+00 -7.91006165022e-10
1.58489319246e+00 +1.00000000000e+00 -9.95817762032e-10
1.99526231497e+00 +1.00000000000e+00 -1.25366028614e-09
2.51188643151e+00 +1.00000000000e+00 -1.57826479198e-09
3.16227766017e+00 +1.00000000000e+00 -1.98691765316e-09
3.98107170553e+00 +1.00000000000e+00 -2.50138112470e-09
5.01187233627e+00 +1.00000000000e+00 -3.14905226247e-09
6.30957344480e+00 +1.00000000000e+00 -3.96442191629e-09
7.94328234724e+00 +1.00000000000e+00 -4.99091149350e-09
1.00000000000e+01 +1.00000000000e+00 -6.28318530718e-09
1.25892541179e+01 +1.00000000000e+00 -7.91006165022e-09
1.58489319246e+01 +1.00000000000e+00 -9.95817762032e-09
1.99526231497e+01 +1.00000000000e+00 -1.25366028614e-08
2.51188643151e+01 +1.00000000000e+00 -1.57826479198e-08
3.16227766017e+01 +1.00000000000e+00 -1.98691765316e-08
3.98107170553e+01 +1.00000000000e+00 -2.50138112470e-08
5.01187233627e+01 +1.00000000000e+00 -3.14905226247e-08
6.30957344480e+01 +1.00000000000e+00 -3.96442191629e-08
7.94328234724e+01 +1.00000000000e+00 -4.99091149350e-08
1.00000000000e+02 +1.00000000000e+00 -6.28318530718e-08
1.25892541179e+02 +1.00000000000e+00 -7.91006165022e-08
1.58489319246e+02 +1.00000000000e+00 -9.95817762032e-08
1.99526231497e+02 +1.00000000000e+00 -1.25366028614e-07
2.51188643151e+02 +1.00000000000e+00 -1.57826479198e-07
3.16227766017e+02 +1.00000000000e+00 -1.98691765316e-07
3.98107170553e+02 +1.00000000000e+00 -2.50138112470e-07
5.01187233627e+02 +1.00000000000e+00 -3.14905226247e-07
6.30957344480e+02 +1.00000000000e+00 -3.96442191629e-07
7.94328234724e+02 +1.00000000000e+00 -4.99091149350e-07
1.00000000000e+03 +1.00000000000e+00 -6.28318530718e-07
1.25892541179e+03 +9.99999999999e-01 -7.91006165022e-07
1.58489319246e+03 +9.99999999999e-01 -9.95817762031e-07
1.99526231497e+03 +9.99999999998e-01 -1.25366028614e-06
2.51188643151e+03 +9.99999999998e-01 -1.57826479197e-06
3.16227766017e+03 +9.99999999996e-01 -1.98691765315e-06
3.98107170553e+03 +9.99999999994e-01 -2.50138112469e-06
5.01187233627e+03 +9.99999999990e-01 -3.14905226244e-06
6.30957344480e+03 +9.99999999984e-01 -3.96442191623e-06
7.94328234724e+03 +9.99999999975e-01 -4.99091149337e-06
1.00000000000e+04 +9.99999999961e-01 -6.28318530693e-06
1.25892541179e+04 +9.99999999937e-01 -7.91006164973e-06
1.58489319246e+04 +9.99999999901e-01 -9.95817761933e-06
1.99526231497e+04 +9.99999999843e-01 -1.25366028594e-05
2.51188643151e+04 +9.99999999751e-01 -1.57826479158e-05
3.16227766017e+04 +9.99999999605e-01 -1.98691765237e-05
3.98107170553e+04 +9.99999999374e-01 -2.50138112314e-05
5.01187233627e+04 +9.99999999008e-01 -3.14905225935e-05
6.30957344480e+04 +9.99999998428e-01 -3.96442191006e-05
7.94328234724e+04 +9.99999997509e-01 -4.99091148107e-05
1.00000000000e+05 +9.99999996052e-01 -6.28318528237e-05
1.25892541179e+05 +9.99999993743e-01 -7.91006160073e-05
1.58489319246e+05 +9.99999990083e-01 -9.95817752157e-05
1.99526231497e+05 +9.99999984283e-01 -1.25366026643e-04
2.51188643151e+05 +9.99999975091e-01 -1.57826475266e-04
3.16227766017e+05 +9.99999960522e-01 -1.98691757472e-04
3.98107170553e+05 +9.99999937431e-01 -2.50138096820e-04
5.01187233627e+05 +9.99999900835e-01 -3.14905195020e-04
6.30957344480e+05 +9.99999842834e-01 -3.96442129322e-04
7.94328234724e+05 +9.99999750908e-01 -4.99091025030e-04
1.00000000000e+06 +9.99999605216e-01 -6.28318282668e-04
1.25892541179e+06 +9.99999374310e-01 -7.91005670097e-04
1.58489319246e+06 +9.99999008348e-01 -9.95816774527e-04
1.99526231497e+06 +9.99998428338e-01 -1.25365831581e-03
2.51188643151e+06 +9.99997509086e-01 -1.57826086066e-03
3.16227766017e+06 +9.99996052174e-01 -1.98690980915e-03
3.98107170553e+06 +9.99993743132e-01 -2.50136547389e-03
5.01187233627e+06 +9.99990083568e-01 -3.14902103511e-03
6.30957344480e+06 +9.99984283606e-01 -3.96435960988e-03
7.94328234724e+06 +9.99975091423e-01 -4.99078717699e-03
1.00000000000e+07 +9.99960523141e-01 -6.28293726676e-03
1.25892541179e+07 +9.99937434839e-01 -7.90956675594e-03
1.58489319246e+07 +9.99900844531e-01 -9.95719021255e-03
1.99526231497e+07 +9.99842858286e-01 -1.25346328381e-02
2.51188643151e+07 +9.99750970056e-01 -1.57787175678e-02
3.16227766017e+07 +9.99605371617e-01 -1.98613355906e-02
3.98107170553e+07 +9.99374700491e-01 -2.49981701232e-02
5.01187233627e+07 +9.99009329386e-01 -3.14593258894e-02
6.30957344480e+07 +9.98430802139e-01 -3.95820095390e-02
7.94328234724e+07 +9.97515269511e-01 -4.97851042354e-02
1.00000000000e+08 +9.96067682407e-01 -6.25847782706e-02
1.25892541179e+08 +9.93781997933e-01 -7.86087687053e-02
1.58489319246e+08 +9.90180841826e-01 -9.86039669914e-02
1.99526231497e+08 +9.84526549538e-01 -1.23426183580e-01
2.51188643151e+08 +9.75696190847e-01 -1.53990694568e-01
3.16227766017e+08 +9.62020935754e-01 -1.91145637996e-01
3.98107170553e+08 +9.41115286748e-01 -2.35408801444e-01
5.01187233627e+08 +9.09781266402e-01 -2.86494875532e-01
6.30957344480e+08 +8.64179940094e-01 -3.42597389413e-01
7.94328234724e+08 +8.00581558225e-01 -3.99563170043e-01
1.00000000000e+09 +7.16956800325e-01 -4.50477243368e-01
1.25892541179e+09 +6.15123139559e-01 -4.86566195639e-01
1.58489319246e+09 +5.02095491724e-01 -4.99995608895e-01
1.99526231497e+09 +3.88853270118e-01 -4.87489901882e-01
2.51188643151e+09 +2.86457458374e-01 -4.52105720950e-01
3.16227766017e+09 +2.02108322864e-01 -4.01572594550e-01
3.98107170553e+09 +1.37799743999e-01 -3.44689678628e-01
5.01187233627e+09 +9.16041989621e-02 -2.88466409994e-01
6.30957344480e+09 +5.98206297664e-02 -2.37154215693e-01
7.94328234724e+09 +3.85963323879e-02 -1.92630878922e-01
1.00000000000e+10 +2.47045230319e-02 -1.55223096135e-01
