! Infineon Technologies  Discrete & RF Semiconductors
! BFP450
!
! VCE =  3.0 V,  IC =  40 mA
! Common Emitter S-Parameters:                            Sep 2010
# GHz  S  MA  R  50
!  f         S11            S21            S12            S22
! GHz     MAG   ANG      MAG   ANG      MAG   ANG      MAG   ANG
 0.030  0.2335  -57.5  64.358  165.3  0.0054   76.0  0.8866  -19.3
 0.040  0.2696  -69.8  63.116  160.9  0.0069   72.8  0.8747  -25.7
 0.050  0.3058  -81.0  61.685  156.4  0.0083   71.4  0.8597  -31.8
 0.060  0.3426  -89.5  59.777  152.5  0.0097   68.0  0.8415  -37.8
 0.070  0.3754  -97.4  57.748  148.3  0.0111   64.4  0.8203  -43.5
 0.080  0.4110 -103.0  55.805  145.0  0.0123   62.8  0.8006  -49.0
 0.090  0.4366 -108.4  53.594  141.6  0.0133   60.7  0.7791  -54.1
 0.100  0.4605 -113.2  51.567  138.4  0.0143   58.3  0.7578  -58.9
 0.110  0.4826 -117.2  49.595  135.5  0.0152   56.6  0.7377  -63.4
 0.120  0.5022 -121.3  47.584  132.8  0.0159   55.0  0.7183  -67.8
 0.130  0.5233 -124.6  45.716  130.3  0.0166   53.6  0.7001  -71.9
 0.140  0.5398 -127.9  43.943  127.9  0.0172   52.2  0.6827  -75.8
 0.150  0.5538 -131.0  42.213  125.6  0.0179   51.2  0.6664  -79.5
 0.200  0.6086 -142.4  34.738  116.5  0.0203   47.0  0.5998  -95.1
 0.250  0.6383 -150.2  29.291  110.0  0.0220   45.0  0.5543 -107.3
 0.300  0.6590 -156.2  25.057  104.7  0.0235   44.3  0.5232 -117.1
 0.350  0.6725 -160.7  21.807  100.7  0.0248   44.1  0.5021 -125.1
 0.400  0.6812 -164.5  19.249   97.1  0.0261   44.3  0.4876 -131.7
 0.450  0.6881 -167.7  17.186   94.2  0.0274   44.6  0.4773 -137.3
 0.500  0.6935 -170.3  15.488   91.6  0.0286   45.3  0.4703 -142.1
 0.600  0.7012 -174.8  12.888   87.2  0.0312   46.4  0.4622 -150.0
 0.700  0.7059 -178.3  10.994   83.6  0.0339   47.7  0.4589 -156.2
 0.800  0.7102  178.5   9.557   80.4  0.0367   48.5  0.4581 -161.5
 0.900  0.7137  175.9   8.442   77.7  0.0395   49.2  0.4592 -165.8
 1.000  0.7169  173.3   7.528   75.1  0.0424   49.7  0.4608 -169.8
 1.100  0.7197  171.1   6.812   72.7  0.0454   50.0  0.4631 -173.2
 1.200  0.7229  168.9   6.190   70.5  0.0484   50.1  0.4661 -176.4
 1.300  0.7244  166.8   5.681   68.3  0.0513   50.0  0.4688 -179.3
 1.400  0.7271  164.8   5.236   66.3  0.0544   49.8  0.4720  178.0
 1.500  0.7295  162.9   4.863   64.3  0.0575   49.5  0.4753  175.4
 1.600  0.7316  161.1   4.534   62.4  0.0605   49.1  0.4786  173.0
 1.700  0.7342  159.2   4.247   60.5  0.0635   48.6  0.4820  170.6
 1.800  0.7351  157.5   3.986   58.6  0.0665   48.0  0.4848  168.5
 1.900  0.7377  155.8   3.757   56.9  0.0695   47.3  0.4888  166.3
 2.000  0.7388  154.0   3.556   55.1  0.0725   46.5  0.4914  164.1
 2.200  0.7413  150.5   3.202   51.5  0.0782   44.9  0.4978  160.0
 2.400  0.7440  147.3   2.910   48.2  0.0839   43.3  0.5049  156.0
 2.600  0.7454  144.3   2.662   44.9  0.0895   41.4  0.5120  152.2
 2.800  0.7492  141.2   2.458   41.6  0.0950   39.6  0.5195  148.7
 3.000  0.7533  138.2   2.278   38.4  0.1003   37.5  0.5269  145.3
 3.500  0.7657  130.6   1.911   30.3  0.1124   32.1  0.5462  137.6
 4.000  0.7812  123.8   1.632   22.9  0.1228   27.0  0.5673  131.1
 4.500  0.7929  118.2   1.421   16.2  0.1321   22.4  0.5877  125.1
 5.000  0.8000  112.9   1.261    9.7  0.1419   17.8  0.6037  119.6
 5.500  0.8003  107.7   1.132    3.3  0.1509   13.0  0.6147  114.0
 6.000  0.8017  103.4   1.034   -2.6  0.1600    8.4  0.6245  108.2
 6.500  0.8094   99.3   0.960   -8.9  0.1689    3.3  0.6358  103.1
 7.000  0.8196   94.2   0.893  -15.7  0.1774   -2.2  0.6461   98.7
 7.500  0.8283   88.5   0.826  -22.7  0.1838   -8.0  0.6590   93.8
 8.000  0.8351   82.5   0.759  -29.1  0.1880  -13.7  0.6816   87.6
 8.500  0.8442   76.3   0.695  -35.4  0.1889  -19.4  0.7078   81.1
 9.000  0.8524   70.3   0.634  -40.9  0.1869  -24.7  0.7264   75.0
 9.500  0.8646   65.8   0.574  -45.5  0.1830  -28.8  0.7439   70.2
10.000  0.8790   63.2   0.532  -48.8  0.1799  -31.9  0.7742   66.9
10.500  0.8848   61.9   0.499  -51.1  0.1788  -33.4  0.7865   67.0
11.000  0.8839   60.9   0.484  -53.2  0.1807  -35.0  0.7857   68.0
11.500  0.8738   59.2   0.472  -56.8  0.1952  -35.2  0.7570   66.6
12.000  0.8604   57.5   0.473  -60.3  0.2079  -40.6  0.7588   63.6
!
!  f       NFmin   Gammaopt  rn/50
! GHz       dB    MAG  ANG    -
 0.450      1.41  0.49 -173   0.06
 0.900      1.48  0.51 -169   0.07
 1.900      1.59  0.57 -153   0.10
 2.400      1.69  0.58 -145   0.12
!
! (c) 2010  Infineon Technologies AG, Munich