!ATF-36163
!2V 20mA
! last updated 11-10-95

# ghz s ma r 50
 
 0.50000    0.994  -11.742    5.108  167.667    0.012   79.174    0.482   -9.149
 1.00000    0.983  -22.674    5.019  157.003    0.023   71.482    0.476  -17.890
 2.00000    0.955  -43.124    4.867  136.313    0.044   56.008    0.457  -34.796
 3.00000    0.914  -63.489    4.768  116.026    0.064   40.681    0.425  -51.243
 4.00000    0.851  -85.411    4.680   95.434    0.083   24.376    0.373  -68.236
 5.00000    0.784 -109.339    4.557   74.119    0.101    7.240    0.306  -88.318
 6.00000    0.721 -134.170    4.393   52.742    0.115   -9.484    0.239 -110.013
 7.00000    0.640 -161.200    4.116   31.005    0.124  -26.915    0.146 -133.349
 8.00000    0.578  172.365    3.873   10.993    0.131  -39.941    0.066 -169.042
 9.00000    0.549  140.087    3.622  -10.779    0.139  -54.594    0.081   81.792
 10.0000    0.552  105.879    3.290  -32.290    0.141  -69.717    0.187   46.545
 11.0000    0.583   74.378    2.894  -53.325    0.135  -84.158    0.294   24.838
 12.0000    0.628   48.903    2.544  -72.867    0.128  -96.698    0.379    7.710
 13.0000    0.677   25.543    2.203  -91.952    0.115 -109.041    0.464   -8.053
 14.0000    0.729    5.746    1.909 -109.311    0.100 -117.848    0.540  -20.866
 15.0000    0.787  -10.769    1.651 -126.919    0.086 -126.197    0.606  -31.800
 16.0000    0.836  -23.950    1.433 -144.273    0.074 -132.029    0.656  -41.570
 17.0000    0.885  -37.504    1.198 -163.091    0.062 -139.898    0.716  -50.991
 18.0000    0.918  -51.938    0.930  178.807    0.042 -146.798    0.778  -63.385

 2.00000    0.52    0.826   28.076    0.393
 3.00000    0.57    0.746   41.901    0.323
 4.00000    0.62    0.664   56.567    0.260
 5.00000    0.66    0.591   72.647    0.200
 6.00000    0.71    0.534   90.003    0.152
 7.00000    0.76    0.460  105.662    0.115
 8.00000    0.82    0.367  120.723    0.095
 9.00000    0.88    0.299  140.376    0.077
 10.0000    0.94    0.199  174.515    0.079
 11.0000    1.01    0.165 -129.127    0.102
 12.0000    1.09    0.201  -79.723    0.149
 13.0000    1.18    0.277  -38.916    0.228
 14.0000    1.28    0.380  -12.568    0.356
 15.0000    1.39    0.497    7.278    0.487
 16.0000    1.52    0.613   20.976    0.658
 17.0000    1.67    0.640   35.311    0.874
 18.0000    1.85    0.758   52.858    1.215
