!Mon 10/Sep/2007 11:11:59
!
!Comment:  300um GSG cal using PCB - TRL cal standard, VMMK1218
! Vd(V)        IVd(mA)        Vg(V)        IVg(mA)      
!2             20.29         0.5799        0            
!Freq(GHZ)     S11(mag)      S11(ang)      S21(mag)      S21(ang)      S12(mag)      S12(ang)      S22(mag)      S22(ang)      
#   GHZ    S     MA   R   50
2.0000        0.8921        -79.6273      11.2187       128.8713      0.0580        43.7588       0.5531        -54.8908     
2.2500        0.8762        -86.9312      10.6608       124.1806      0.0619        39.4221       0.5301        -59.9431     
2.5000        0.8639        -94.5386      10.1659       119.3858      0.0654        35.2641       0.5076        -65.5127     
2.7500        0.8588        -101.0979     9.6944        115.3389      0.0686        32.0266       0.4909        -70.0765     
3.0000        0.8505        -107.7361     9.2585        111.2521      0.0713        28.1929       0.4746        -74.8909     
3.2500        0.8395        -113.6036     8.8296        107.5111      0.0739        24.9853       0.4596        -78.9676     
3.5000        0.8261        -119.4648     8.4026        103.7423      0.0754        21.9877       0.4429        -83.3054     
3.7500        0.8200        -124.5766     8.0373        100.3808      0.0770        19.4278       0.4296        -86.9987     
4.0000        0.8116        -129.9018     7.6738        96.9493       0.0785        16.6161       0.4148        -91.3447     
4.2500        0.8098        -134.3694     7.3533        94.0248       0.0798        14.1631       0.4049        -94.1692     
4.5000        0.8034        -139.1544     7.0447        90.8141       0.0810        11.8195       0.3939        -97.8124     
4.7500        0.7965        -143.3264     6.7527        87.9363       0.0815        9.2838        0.3844        -101.2881    
5.0000        0.7934        -147.2935     6.4875        85.1601       0.0821        6.9692        0.3756        -104.3134    
5.2500        0.7899        -151.0682     6.2312        82.4715       0.0826        5.2071        0.3669        -107.3009    
5.5000        0.7878        -154.8922     5.9973        79.7884       0.0833        2.9764        0.3596        -110.2837    
5.7500        0.7862        -158.1800     5.7843        77.3017       0.0837        1.1757        0.3545        -112.8618    
6.0000        0.7836        -161.6561     5.5743        74.8426       0.0837        -0.7493       0.3476        -115.6102    
6.2500        0.7817        -164.9205     5.3764        72.3747       0.0842        -2.7177       0.3430        -118.1690    
6.5000        0.7779        -167.8401     5.1946        70.0866       0.0840        -4.3052       0.3382        -120.8095    
6.7500        0.7788        -170.7322     5.0309        67.7938       0.0844        -5.9593       0.3341        -123.0324    
7.0000        0.7752        -173.6424     4.8633        65.5372       0.0843        -7.6637       0.3297        -125.4606    
7.2500        0.7744        -176.3103     4.7144        63.2983       0.0844        -9.2853       0.3270        -127.8468    
7.5000        0.7725        -179.0539     4.5643        61.0796       0.0841        -10.8746      0.3238        -130.0794    
7.7500        0.7727        178.6331      4.4280        59.0235       0.0839        -12.2012      0.3200        -132.4751    
8.0000        0.7730        176.0021      4.3007        56.8683       0.0840        -13.7239      0.3173        -134.4584    
8.2500        0.7734        173.6116      4.1750        54.8425       0.0839        -15.2057      0.3147        -136.5126    
8.5000        0.7726        171.1036      4.0563        52.6994       0.0837        -16.8548      0.3124        -138.5038    
8.7500        0.7703        169.1388      3.9378        50.7782       0.0835        -17.9099      0.3116        -140.6879    
9.0000        0.7695        167.0766      3.8323        48.8486       0.0829        -19.3150      0.3102        -142.7989    
9.2500        0.7727        164.9001      3.7349        46.9350       0.0826        -20.6508      0.3070        -144.7054    
9.5000        0.7718        162.8147      3.6403        44.9728       0.0826        -21.9567      0.3060        -146.4224    
9.7500        0.7707        160.7328      3.5405        43.0468       0.0820        -23.2633      0.3064        -148.2822    
10.0000       0.7714        158.8115      3.4567        41.1857       0.0816        -24.4561      0.3053        -149.9884    
10.2500       0.7728        156.8650      3.3771        39.3086       0.0818        -25.8491      0.3049        -152.0638    
10.5000       0.7734        155.1562      3.2990        37.5343       0.0812        -26.9937      0.3043        -153.7369    
10.7500       0.7746        153.1220      3.2201        35.6513       0.0808        -28.1771      0.3036        -155.4905    
11.0000       0.7753        151.3103      3.1483        33.8761       0.0802        -29.2820      0.3043        -157.0836    
11.2500       0.7750        149.6918      3.0767        32.1685       0.0800        -30.4139      0.3060        -159.1283    
11.5000       0.7760        147.8143      3.0156        30.3838       0.0793        -31.3933      0.3055        -160.7314    
11.7500       0.7766        146.1763      2.9492        28.5105       0.0792        -32.3164      0.3048        -162.5283    
12.0000       0.7785        144.3960      2.8868        26.7092       0.0788        -33.5109      0.3067        -163.7002    
12.2500       0.7790        142.7719      2.8274        25.0360       0.0782        -34.6365      0.3079        -165.4521    
12.5000       0.7809        141.0195      2.7706        23.2960       0.0780        -35.8032      0.3092        -167.1323    
12.7500       0.7812        139.3596      2.7163        21.5437       0.0777        -36.8809      0.3098        -168.8943    
13.0000       0.7822        137.5899      2.6656        19.7975       0.0772        -37.8167      0.3101        -170.4325    
13.2500       0.7827        136.1169      2.6129        18.1251       0.0771        -38.8900      0.3122        -171.9721    
13.5000       0.7816        134.4210      2.5666        16.4301       0.0765        -40.0899      0.3125        -173.1012    
13.7500       0.7854        132.7531      2.5194        14.7621       0.0761        -41.1734      0.3132        -174.7444    
14.0000       0.7866        131.2754      2.4747        13.0683       0.0757        -42.3299      0.3151        -176.0425    
14.2500       0.7869        129.5128      2.4307        11.3681       0.0752        -43.1027      0.3155        -177.2108    
14.5000       0.7890        127.9790      2.3898        9.6567        0.0750        -44.0022      0.3179        -178.6743    
14.7500       0.7895        126.4566      2.3473        8.0597        0.0745        -45.3518      0.3186        -179.9890    
15.0000       0.7914        124.9991      2.3113        6.4134        0.0739        -46.3570      0.3207        178.5852     
15.2500       0.7917        123.2147      2.2717        4.7036        0.0732        -47.2874      0.3200        177.4091     
15.5000       0.7941        121.6170      2.2355        3.0080        0.0729        -48.1628      0.3225        176.1998     
15.7500       0.7964        120.1485      2.1989        1.4410        0.0725        -49.0425      0.3239        174.8747     
16.0000       0.7944        118.5037      2.1658        -0.2713       0.0722        -49.9010      0.3243        173.4898     
16.2500       0.7987        116.7599      2.1324        -1.9060       0.0717        -51.0445      0.3244        172.0730     
16.5000       0.7979        115.6918      2.1015        -3.4134       0.0714        -52.0505      0.3285        170.9082     
16.7500       0.7994        113.5157      2.0737        -5.2589       0.0711        -52.8072      0.3270        169.4314     
17.0000       0.8027        112.2638      2.0401        -6.8350       0.0708        -53.7212      0.3313        168.0110     
17.2500       0.8027        110.6307      2.0111        -8.4274       0.0707        -54.3849      0.3326        166.7906     
17.5000       0.8041        109.2375      1.9791        -9.9933       0.0700        -55.6902      0.3344        165.4857     
17.7500       0.8060        107.4477      1.9549        -11.6102      0.0695        -56.2545      0.3362        164.1389     
18.0000       0.8097        106.1240      1.9292        -13.2009      0.0692        -57.6806      0.3397        162.5801     
18.2500       0.8059        104.4536      1.9002        -14.9071      0.0685        -57.8531      0.3392        161.3931     
18.5000       0.8078        102.9042      1.8739        -16.5078      0.0689        -59.0292      0.3407        159.9443     
18.7500       0.8105        101.6344      1.8492        -18.1210      0.0687        -59.9237      0.3438        158.5806     
19.0000       0.8081        100.0194      1.8236        -19.8207      0.0681        -60.9247      0.3451        157.1260     
19.2500       0.8129        98.3367       1.7989        -21.4419      0.0674        -62.2900      0.3455        155.5196     
19.5000       0.8102        96.8793       1.7753        -23.0302      0.0672        -62.9473      0.3478        154.4738     
19.7500       0.8116        95.0563       1.7513        -24.7394      0.0664        -63.7896      0.3484        152.8705     
20.0000       0.8139        93.9950       1.7291        -26.2349      0.0666        -64.9169      0.3549        151.7777     
20.2500       0.8133        92.0535       1.7065        -27.9949      0.0661        -65.9259      0.3548        149.9614     
20.5000       0.8155        90.8276       1.6850        -29.5096      0.0661        -67.1466      0.3568        148.8190     
20.7500       0.8144        89.0445       1.6624        -31.1817      0.0653        -68.0168      0.3562        147.4678     
21.0000       0.8183        88.0679       1.6429        -32.5896      0.0653        -68.3362      0.3628        146.6020     
21.2500       0.8135        86.1196       1.6208        -34.3741      0.0648        -69.8908      0.3630        145.1234     
21.5000       0.8199        84.7870       1.6036        -35.9382      0.0644        -70.3725      0.3667        143.6245     
21.7500       0.8185        83.4123       1.5857        -37.5562      0.0642        -71.7045      0.3684        142.3507     
22.0000       0.8216        81.5566       1.5652        -39.2411      0.0640        -72.9675      0.3681        140.9800     
22.2500       0.8228        80.0280       1.5474        -40.9136      0.0633        -73.5442      0.3718        139.7040     
22.5000       0.8233        78.3302       1.5299        -42.5958      0.0633        -74.6227      0.3743        137.9793     
22.7500       0.8242        76.7243       1.5101        -44.2254      0.0627        -75.9874      0.3759        136.6334     
23.0000       0.8237        75.0720       1.4900        -45.9178      0.0623        -76.8039      0.3762        134.9918     
23.2500       0.8250        73.4185       1.4747        -47.4942      0.0617        -77.8124      0.3802        133.7901     
23.5000       0.8280        72.1548       1.4573        -49.1048      0.0618        -78.9814      0.3819        132.3458     
23.7500       0.8274        70.4737       1.4411        -50.7372      0.0612        -79.9677      0.3848        130.9352     
24.0000       0.8346        69.1455       1.4269        -52.2772      0.0615        -81.0412      0.3849        129.3490     
24.2500       0.8346        67.6523       1.4138        -54.0255      0.0609        -82.3306      0.3908        127.9405     
24.5000       0.8363        66.2037       1.3939        -55.6141      0.0603        -83.5962      0.3888        126.7057     
24.7500       0.8356        64.4672       1.3784        -57.3683      0.0599        -84.4240      0.3911        124.7899     
25.0000       0.8387        63.0238       1.3641        -58.9474      0.0595        -85.6462      0.3949        123.5022     
25.2500       0.8370        61.5446       1.3460        -60.5732      0.0591        -86.5640      0.3935        121.7388     
25.5000       0.8390        59.8358       1.3297        -62.2669      0.0589        -87.5284      0.3960        119.8125     
25.7500       0.8408        58.6978       1.3162        -63.8354      0.0586        -88.4658      0.3985        118.3277     
26.0000       0.8408        56.9069       1.2987        -65.5995      0.0581        -89.7819      0.3999        116.1397     
26.2500       0.8427        55.5146       1.2843        -67.2505      0.0579        -91.0535      0.4023        114.6792     
26.5000       0.8437        54.1850       1.2688        -68.8701      0.0569        -92.3415      0.4038        112.8447     
26.7500       0.8434        52.7001       1.2537        -70.5638      0.0565        -93.4893      0.4081        111.2070     
27.0000       0.8475        51.4459       1.2388        -72.1132      0.0562        -94.2727      0.4112        109.4819     
27.2500       0.8482        50.2873       1.2246        -73.7510      0.0560        -95.4764      0.4162        108.1965     
27.5000       0.8505        48.8073       1.2086        -75.3539      0.0554        -96.6871      0.4169        106.3835     
27.7500       0.8516        47.6129       1.1958        -76.9802      0.0551        -97.7647      0.4226        104.6087     
28.0000       0.8504        46.5427       1.1847        -78.5118      0.0545        -98.8959      0.4258        103.4725     
28.2500       0.8509        45.2891       1.1672        -80.1175      0.0537        -100.1778     0.4236        101.1707     
28.5000       0.8539        43.9255       1.1545        -81.7658      0.0538        -100.3328     0.4277        99.8592      
28.7500       0.8527        43.2409       1.1411        -83.2513      0.0543        -101.8752     0.4288        98.0961      
29.0000       0.8557        41.3635       1.1258        -85.0488      0.0531        -103.8681     0.4325        96.3257      
29.2500       0.8562        40.5087       1.1109        -86.6141      0.0522        -105.5166     0.4356        94.4358      
29.5000       0.8562        38.6911       1.0954        -88.3142      0.0514        -106.1734     0.4394        92.5396      
29.7500       0.8557        37.9047       1.0818        -89.8287      0.0505        -106.7125     0.4439        90.9020      
30.0000       0.8591        36.3273       1.0702        -91.4510      0.0508        -106.9682     0.4454        89.4641      
30.2500       0.8611        35.8757       1.0550        -92.9647      0.0509        -108.4635     0.4526        87.5540      
30.5000       0.8600        34.0025       1.0472        -94.5834      0.0507        -110.6567     0.4572        86.7244      
30.7500       0.8701        33.4805       1.0330        -95.9861      0.0503        -112.1614     0.4587        84.6304      
31.0000       0.8641        32.0903       1.0246        -97.6783      0.0493        -113.4338     0.4614        83.6692      
31.2500       0.8722        30.9311       1.0103        -99.1892      0.0486        -114.1523     0.4646        81.4278      
31.5000       0.8670        29.6964       1.0045        -100.7805     0.0490        -114.2753     0.4674        81.4114      
31.7500       0.8738        28.5959       0.9860        -102.3234     0.0486        -115.6987     0.4637        77.8418      
32.0000       0.8674        27.5207       0.9785        -104.0796     0.0485        -117.8537     0.4769        77.4094      
32.2500       0.8724        25.9529       0.9632        -105.4360     0.0480        -118.8554     0.4703        75.1318      
32.5000       0.8770        25.2489       0.9492        -107.1765     0.0466        -121.0240     0.4841        72.9557      
32.7500       0.8675        23.5440       0.9427        -108.8133     0.0462        -121.8078     0.4849        72.0736      
33.0000       0.8795        22.2418       0.9275        -110.2906     0.0459        -121.7840     0.4905        69.8811      
33.2500       0.8777        21.9457       0.9181        -111.8325     0.0463        -122.8502     0.4989        68.3408      
33.5000       0.8794        19.9982       0.9084        -113.5026     0.0464        -126.0983     0.5012        66.9544      
33.7500       0.8906        19.0670       0.8981        -115.0577     0.0459        -128.6263     0.5026        64.8844      
34.0000       0.8826        17.9551       0.8892        -116.5607     0.0448        -130.1935     0.5066        63.4720      
34.2500       0.8853        16.6134       0.8787        -118.2125     0.0431        -129.2780     0.5084        61.9043      
34.5000       0.8843        15.8666       0.8694        -119.6878     0.0431        -130.2182     0.5121        60.9917      
34.7500       0.8846        14.9845       0.8567        -121.2315     0.0446        -131.5131     0.5151        58.3600      
35.0000       0.8878        14.1046       0.8493        -122.6948     0.0446        -134.9948     0.5212        57.9976      
35.2500       0.8972        12.4077       0.8381        -124.3897     0.0436        -136.7914     0.5210        55.5699      
35.5000       0.8915        12.1108       0.8303        -125.8417     0.0423        -139.0484     0.5352        54.4202      
35.7500       0.8958        9.8153        0.8200        -127.5182     0.0407        -139.3623     0.5311        52.9128      
36.0000       0.8950        9.4475        0.8094        -129.1254     0.0395        -139.1649     0.5414        51.0961      
36.2500       0.8936        7.6755        0.7985        -130.8310     0.0408        -138.5116     0.5378        49.9503      
36.5000       0.8966        6.9146        0.7862        -132.1446     0.0415        -141.5521     0.5454        48.7476      
36.7500       0.8918        5.2070        0.7779        -133.2308     0.0406        -145.6376     0.5458        47.6799      
37.0000       0.8992        4.7149        0.7750        -134.7527     0.0387        -146.5919     0.5547        45.4770      
37.2500       0.8868        3.0456        0.7685        -136.9535     0.0369        -145.7888     0.5585        45.5612      
37.5000       0.8977        2.3478        0.7512        -138.5130     0.0392        -144.0995     0.5565        43.2991      
37.7500       0.8957        1.5833        0.7355        -139.3175     0.0415        -148.0474     0.5672        42.7522      
38.0000       0.8966        -0.4193       0.7395        -140.7578     0.0380        -154.6281     0.5692        41.8357      
38.2500       0.9018        -1.5862       0.7298        -142.5905     0.0355        -152.3128     0.5709        40.1216      
38.5000       0.8964        -2.7982       0.7198        -144.4279     0.0366        -150.1695     0.5838        39.1715      
38.7500       0.8956        -4.6143       0.7109        -145.8045     0.0390        -153.8601     0.5778        38.4956      
39.0000       0.8974        -5.3112       0.7009        -146.9810     0.0376        -156.7457     0.5824        35.9706      
39.2500       0.8935        -6.5286       0.6927        -148.4008     0.0377        -159.5918     0.5844        35.8984      
39.5000       0.8967        -7.8165       0.6887        -149.7443     0.0358        -161.6306     0.5865        34.2387      
39.7500       0.8972        -8.9721       0.6817        -151.5144     0.0351        -162.4187     0.5941        33.2525      
40.0000       0.8930        -10.2745      0.6732        -153.0238     0.0368        -161.3472     0.5931        31.9113      
40.2500       0.8970        -11.1459      0.6624        -154.4431     0.0373        -164.6060     0.6040        31.1053      
